#-----------------------------------------------------------
# xsim v2022.1 (64-bit)
# SW Build 3526262 on Mon Apr 18 15:47:01 MDT 2022
# IP Build 3524634 on Mon Apr 18 20:55:01 MDT 2022
# Start of session at: Sun Feb  2 13:07:09 2025
# Process ID: 391938
# Current directory: /home/xe-user106/10x-Engineers/SOC-DV/TCP/axi_dma_verification/rtl/axi_dma_verification_10xe_tcp/axi_dma_verification_10xe_tcp.sim/sim_1/behav/xsim
# Command line: xsim -log simulate.log -mode tcl -source {xsim.dir/axi_dma_tb_top_behav/xsim_script.tcl}
# Log file: /home/xe-user106/10x-Engineers/SOC-DV/TCP/axi_dma_verification/rtl/axi_dma_verification_10xe_tcp/axi_dma_verification_10xe_tcp.sim/sim_1/behav/xsim/simulate.log
# Journal file: /home/xe-user106/10x-Engineers/SOC-DV/TCP/axi_dma_verification/rtl/axi_dma_verification_10xe_tcp/axi_dma_verification_10xe_tcp.sim/sim_1/behav/xsim/xsim.jou
# Running On: noman-10x, OS: Linux, CPU Frequency: 1826.413 MHz, CPU Physical cores: 12, Host memory: 16050 MB
#-----------------------------------------------------------
source xsim.dir/axi_dma_tb_top_behav/xsim_script.tcl
# xsim {axi_dma_tb_top_behav} -testplusarg UVM_TESTNAME=axis_write_cov_test -view {{/home/xe-user106/10x-Engineers/SOC-DV/TCP/axi_dma_verification/rtl/axi_dma_verification_10xe_tcp/axi_dma_tb_top_behav.wcfg}} -tclbatch {axi_dma_tb_top.tcl} -key {Behavioral:sim_1:Functional:axi_dma_tb_top}
Time resolution is 1 ps
open_wave_config /home/xe-user106/10x-Engineers/SOC-DV/TCP/axi_dma_verification/rtl/axi_dma_verification_10xe_tcp/axi_dma_tb_top_behav.wcfg
source axi_dma_tb_top.tcl
## set curr_wave [current_wave_config]
## if { [string length $curr_wave] == 0 } {
##   if { [llength [get_objects]] > 0} {
##     add_wave /
##     set_property needs_save false [current_wave_config]
##   } else {
##      send_msg_id Add_Wave-1 WARNING "No top level signals found. Simulator will start without a wave window. If you want to open a wave window go to 'File->New Waveform Configuration' or type 'create_wave_config' in the TCL console."
##   }
## }
## run all
UVM_INFO /home/xe-user106/vivado/Vivado/2022.1/data/system_verilog/uvm_1.2/xlnx_uvm_package.sv(18601) @ 0: reporter [UVM/RELNOTES] 
      (Specify +UVM_NO_RELNOTES to turn off this notice)
  with `UVM_OBJECT_DO_NOT_NEED_CONSTRUCTOR undefined.

  You are using a version of the UVM library that has been compiled
  with `UVM_NO_DEPRECATED undefined.

  You are using a version of the UVM library that has been compiled

  ***********       IMPORTANT RELEASE NOTES         ************
----------------------------------------------------------------
(C) 2013-2014 NVIDIA Corporation
(C) 2011-2013 Cypress Semiconductor Corp.
(C) 2006-2014 Synopsys, Inc.
(C) 2007-2014 Cadence Design Systems, Inc.
(C) 2007-2014 Mentor Graphics Corporation


----------------------------------------------------------------

 Block Memory Generator module loading initial data...
 Block Memory Generator data initialization complete.
Block Memory Generator module axi_dma_tb_top.memory.inst.\axi_mem_module.blk_mem_gen_v8_4_5_inst  is using a behavioral model for simulation which will not precisely model memory collision behavior.
UVM_INFO /home/xe-user106/vivado/Vivado/2022.1/data/system_verilog/uvm_1.2/xlnx_uvm_package.sv(18648) @ 0: reporter [NO_DPI_TSTNAME] UVM_NO_DPI defined--getting UVM_TESTNAME directly, without DPI
UVM_INFO @ 0: reporter [RNTST] Running test axis_write_cov_test...
Running default test
UVM_INFO /home/xe-user106/vivado/Vivado/2022.1/data/system_verilog/uvm_1.2/xlnx_uvm_package.sv(7061) @ 0: reporter [UVM/CONFIGDB/SPELLCHK] include_coverage not located, did you mean env_cfg
UVM_INFO /home/xe-user106/vivado/Vivado/2022.1/data/system_verilog/uvm_1.2/xlnx_uvm_package.sv(7061) @ 0: reporter [UVM/CONFIGDB/SPELLCHK] include_coverage not located, did you mean env_cfg
UVM_INFO /home/xe-user106/vivado/Vivado/2022.1/data/system_verilog/uvm_1.2/xlnx_uvm_package.sv(7061) @ 0: reporter [UVM/CONFIGDB/SPELLCHK] include_coverage not located, did you mean env_cfg
UVM_INFO /home/xe-user106/vivado/Vivado/2022.1/data/system_verilog/uvm_1.2/xlnx_uvm_package.sv(7061) @ 0: reporter [UVM/CONFIGDB/SPELLCHK] include_coverage not located, did you mean env_cfg
UVM_INFO /home/xe-user106/vivado/Vivado/2022.1/data/system_verilog/uvm_1.2/xlnx_uvm_package.sv(7061) @ 0: reporter [UVM/CONFIGDB/SPELLCHK] include_coverage not located, did you mean env_cfg
UVM_INFO /home/xe-user106/vivado/Vivado/2022.1/data/system_verilog/uvm_1.2/xlnx_uvm_package.sv(7061) @ 0: reporter [UVM/CONFIGDB/SPELLCHK] include_coverage not located, did you mean env_cfg
UVM_INFO /home/xe-user106/vivado/Vivado/2022.1/data/system_verilog/uvm_1.2/xlnx_uvm_package.sv(7061) @ 0: reporter [UVM/CONFIGDB/SPELLCHK] include_coverage not located, did you mean env_cfg
UVM_INFO /home/xe-user106/vivado/Vivado/2022.1/data/system_verilog/uvm_1.2/xlnx_uvm_package.sv(7061) @ 0: reporter [UVM/CONFIGDB/SPELLCHK] include_coverage not located, did you mean env_cfg
UVM_INFO /home/xe-user106/vivado/Vivado/2022.1/data/system_verilog/uvm_1.2/xlnx_uvm_package.sv(7061) @ 0: reporter [UVM/CONFIGDB/SPELLCHK] include_coverage not located, did you mean env_cfg
UVM_INFO /home/xe-user106/vivado/Vivado/2022.1/data/system_verilog/uvm_1.2/xlnx_uvm_package.sv(7061) @ 0: reporter [UVM/CONFIGDB/SPELLCHK] include_coverage not located, did you mean env_cfg
UVM_INFO /home/xe-user106/vivado/Vivado/2022.1/data/system_verilog/uvm_1.2/xlnx_uvm_package.sv(7061) @ 0: reporter [UVM/CONFIGDB/SPELLCHK] include_coverage not located, did you mean env_cfg
WARNING: Out of bounds value range in bin 'high_values' for Coverpoint 'cp_rdata' is converted to nearest valid bounded range of [65536:0].
WARNING: Out of bounds value range in bin 'high_values' for Coverpoint 'cp_wdata' is converted to nearest valid bounded range of [65536:0].
WARNING: Out of bounds value range in bin 'high_values' for Coverpoint 'cp_tdata' is converted to nearest valid bounded range of [65536:0].
UVM_INFO /home/xe-user106/vivado/Vivado/2022.1/data/system_verilog/uvm_1.2/xlnx_uvm_package.sv(18752) @ 0: reporter [UVMTOP] UVM testbench topology:
-------------------------------------------------------------------
Name                       Type                         Size  Value
-------------------------------------------------------------------
uvm_test_top               axis_write_cov_test          -     @342 
  env                      environment                  -     @367 
    axi_lite_agt           axi_lite_agent               -     @401 
      driver               axi_lite_driver              -     @675 
        rsp_port           uvm_analysis_port            -     @694 
        seq_item_port      uvm_seq_item_pull_port       -     @684 
      monitor              axi_lite_monitor             -     @704 
        ap                 uvm_analysis_port            -     @852 
      sequencer            axi_lite_sequencer           -     @713 
        rsp_export         uvm_analysis_export          -     @722 
        seq_item_export    uvm_seq_item_pull_imp        -     @840 
        arbitration_queue  array                        0     -    
        lock_queue         array                        0     -    
        num_last_reqs      integral                     32    'd1  
        num_last_rsps      integral                     32    'd1  
    axi_lite_cov           axi_lite_coverage            -     @598 
      analysis_imp         uvm_analysis_imp             -     @607 
    axi_mon                axi_monitor                  -     @536 
      ap                   uvm_analysis_port            -     @868 
    axis_read_cov          axis_read_coverage           -     @617 
      analysis_imp         uvm_analysis_imp             -     @626 
    axis_wr_agt            axis_write_agent             -     @550 
      driver               axis_write_driver            -     @880 
        rsp_port           uvm_analysis_port            -     @899 
        seq_item_port      uvm_seq_item_pull_port       -     @889 
      monitor              axis_write_monitor           -     @1046
        s2mm_write         uvm_analysis_port            -     @1056
      sequencer            uvm_sequencer                -     @909 
        rsp_export         uvm_analysis_export          -     @918 
        seq_item_export    uvm_seq_item_pull_imp        -     @1036
        arbitration_queue  array                        0     -    
        lock_queue         array                        0     -    
        num_last_reqs      integral                     32    'd1  
        num_last_rsps      integral                     32    'd1  
    axis_write_cov         axis_write_coverage          -     @636 
      analysis_imp         uvm_analysis_imp             -     @645 
    s2mm_introut_cov       s2mm_introut_coverage        -     @655 
      analysis_imp         uvm_analysis_imp             -     @664 
    sco                    scoreboard                   -     @559 
      axi_export           uvm_analysis_imp_axi         -     @588 
      read_export          uvm_analysis_imp_mm2s_read   -     @568 
      write_export         uvm_analysis_imp_s2mm_write  -     @578 
-------------------------------------------------------------------

UVM_INFO /home/xe-user106/vivado/Vivado/2022.1/data/system_verilog/uvm_1.2/xlnx_uvm_package.sv(20867) @ 0: reporter [UVM/COMP/NAMECHECK] This implementation of the component name checks requires DPI to be enabled
UVM_INFO /home/xe-user106/vivado/Vivado/2022.1/data/system_verilog/uvm_1.2/xlnx_uvm_package.sv(24209) @ 0: uvm_test_top.env.axi_lite_agt.sequencer [PHASESEQ] No default phase sequence for phase 'run'
UVM_INFO /home/xe-user106/vivado/Vivado/2022.1/data/system_verilog/uvm_1.2/xlnx_uvm_package.sv(24209) @ 0: uvm_test_top.env.axis_wr_agt.sequencer [PHASESEQ] No default phase sequence for phase 'run'
UVM_INFO /home/xe-user106/10x-Engineers/SOC-DV/TCP/axi_dma_verification/verif/tests/testlib.sv(1128) @ 0: uvm_test_top [axis_write_cov_test] Raised objection
UVM_INFO /home/xe-user106/10x-Engineers/SOC-DV/TCP/axi_dma_verification/verif/stream_uvc/axis_write_monitor.sv(46) @ 0: uvm_test_top.env.axis_wr_agt.monitor [uvm_test_top.env.axis_wr_agt.monitor] AXIS Write Monitor Started
UVM_INFO /home/xe-user106/10x-Engineers/SOC-DV/TCP/axi_dma_verification/verif/axi_coverage_monitor/axi_monitor.sv(49) @ 0: uvm_test_top.env.axi_mon [uvm_test_top.env.axi_mon] AXI Monitor Started
UVM_INFO /home/xe-user106/10x-Engineers/SOC-DV/TCP/axi_dma_verification/verif/register_uvc/axi_lite_monitor.sv(49) @ 0: uvm_test_top.env.axi_lite_agt.monitor [uvm_test_top.env.axi_lite_agt.monitor] Monitor Started
UVM_INFO /home/xe-user106/vivado/Vivado/2022.1/data/system_verilog/uvm_1.2/xlnx_uvm_package.sv(24209) @ 0: uvm_test_top.env.axi_lite_agt.sequencer [PHASESEQ] No default phase sequence for phase 'pre_reset'
UVM_INFO /home/xe-user106/vivado/Vivado/2022.1/data/system_verilog/uvm_1.2/xlnx_uvm_package.sv(24209) @ 0: uvm_test_top.env.axis_wr_agt.sequencer [PHASESEQ] No default phase sequence for phase 'pre_reset'
UVM_INFO /home/xe-user106/vivado/Vivado/2022.1/data/system_verilog/uvm_1.2/xlnx_uvm_package.sv(24244) @ 0: uvm_test_top.env.axi_lite_agt.sequencer [PHASESEQ] No default sequence to kill for phase 'pre_reset'
UVM_INFO /home/xe-user106/vivado/Vivado/2022.1/data/system_verilog/uvm_1.2/xlnx_uvm_package.sv(24244) @ 0: uvm_test_top.env.axis_wr_agt.sequencer [PHASESEQ] No default sequence to kill for phase 'pre_reset'
UVM_INFO /home/xe-user106/vivado/Vivado/2022.1/data/system_verilog/uvm_1.2/xlnx_uvm_package.sv(24209) @ 0: uvm_test_top.env.axi_lite_agt.sequencer [PHASESEQ] No default phase sequence for phase 'reset'
UVM_INFO /home/xe-user106/vivado/Vivado/2022.1/data/system_verilog/uvm_1.2/xlnx_uvm_package.sv(24209) @ 0: uvm_test_top.env.axis_wr_agt.sequencer [PHASESEQ] No default phase sequence for phase 'reset'
Info: [XPM_MEMORY 20-1] MEMORY_PRIMITIVE (0) instructs Vivado Synthesis to choose the memory primitive type. Depending on their values, other XPM_MEMORY parameters may preclude the choice of certain memory primitive types. Review XPM_MEMORY documentation and parameter values to understand any limitations, or set MEMORY_PRIMITIVE to a different value. axi_dma_tb_top.DUT.U0.I_PRMRY_DATAMOVER.gen_s2mm_full.I_S2MM_FULL_WRAPPER.gen_enable_indet_btt_sf.I_INDET_BTT.I_XD_FIFO.non_blk_mem.I_SYNC_FIFOGEN_FIFO.xpm_fifo_instance.xpm_fifo_sync_inst.xpm_fifo_base_inst.\gen_sdpram.xpm_memory_base_inst .config_drc
Time: 1 ps  Iteration: 0  Process: /axi_dma_tb_top/DUT/U0/I_PRMRY_DATAMOVER/gen_s2mm_full/I_S2MM_FULL_WRAPPER/gen_enable_indet_btt_sf/I_INDET_BTT/I_XD_FIFO/non_blk_mem/I_SYNC_FIFOGEN_FIFO/xpm_fifo_instance/xpm_fifo_sync_inst/xpm_fifo_base_inst/gen_sdpram.xpm_memory_base_inst/Initial299_571  Scope: axi_dma_tb_top.DUT.U0.I_PRMRY_DATAMOVER.gen_s2mm_full.I_S2MM_FULL_WRAPPER.gen_enable_indet_btt_sf.I_INDET_BTT.I_XD_FIFO.non_blk_mem.I_SYNC_FIFOGEN_FIFO.xpm_fifo_instance.xpm_fifo_sync_inst.xpm_fifo_base_inst.\gen_sdpram.xpm_memory_base_inst .config_drc  File: /home/xe-user106/vivado/Vivado/2022.1/data/ip/xpm/xpm_memory/hdl/xpm_memory.sv Line: 493
UVM_INFO /home/xe-user106/10x-Engineers/SOC-DV/TCP/axi_dma_verification/verif/register_uvc/axi_lite_monitor.sv(79) @ 10000: uvm_test_top.env.axi_lite_agt.monitor [axi_lite_monitor] Transaction Collected :
--------------------------------------------------
Name                  Type             Size  Value
--------------------------------------------------
item                  reg_transaction  -     @1113
  s_axi_lite_awvalid  integral         1     'h0  
  s_axi_lite_awready  integral         1     'h0  
  s_axi_lite_awaddr   integral         10    'h0  
  s_axi_lite_wvalid   integral         1     'h0  
  s_axi_lite_wready   integral         1     'h0  
  s_axi_lite_wdata    integral         32    'h0  
  s_axi_lite_bresp    integral         2     'h0  
  s_axi_lite_bvalid   integral         1     'h0  
  s_axi_lite_bready   integral         1     'h0  
  s_axi_lite_arvalid  integral         1     'h0  
  s_axi_lite_arready  integral         1     'h0  
  s_axi_lite_araddr   integral         10    'h0  
  s_axi_lite_rvalid   integral         1     'h0  
  s_axi_lite_rready   integral         1     'h0  
  s_axi_lite_rdata    integral         32    'h0  
  s_axi_lite_rresp    integral         2     'h0  
--------------------------------------------------

UVM_INFO /home/xe-user106/10x-Engineers/SOC-DV/TCP/axi_dma_verification/verif/environment/coverage_model.sv(31) @ 10000: uvm_test_top.env.axi_lite_cov [\$unit_params_pkg_sv_891442008 .\axi_lite_coverage::write ] Recieved AXI Lite transaction in Coverage Model
UVM_INFO /home/xe-user106/10x-Engineers/SOC-DV/TCP/axi_dma_verification/verif/environment/coverage_model.sv(326) @ 10000: uvm_test_top.env.s2mm_introut_cov [\$unit_params_pkg_sv_891442008 .\s2mm_introut_coverage::write ] Recieved AXI transaction in Coverage Model
UVM_INFO /home/xe-user106/10x-Engineers/SOC-DV/TCP/axi_dma_verification/verif/axi_coverage_monitor/axi_monitor.sv(95) @ 10000: uvm_test_top.env.axi_mon [axi_monitor] Transaction Collected :
--------------------------------------------
Name            Type             Size  Value
--------------------------------------------
item            axi_transaction  -     @1107
  araddr        integral         32    'h0  
  arlen         integral         8     'h0  
  arsize        integral         3     'h0  
  arburst       integral         2     'h0  
  arprot        integral         3     'h0  
  arcache       integral         4     'h0  
  arvalid       integral         1     'h0  
  arready       integral         1     'h0  
  rdata         integral         32    'h0  
  rresp         integral         2     'h0  
  rlast         integral         1     'h0  
  rvalid        integral         1     'h0  
  rready        integral         1     'h0  
  awaddr        integral         32    'h0  
  awlen         integral         8     'h0  
  awsize        integral         3     'h0  
  awburst       integral         2     'h0  
  awprot        integral         3     'h0  
  awcache       integral         4     'h0  
  awvalid       integral         1     'h0  
  awready       integral         1     'h0  
  wdata         integral         32    'h0  
  wstrb         integral         4     'h0  
  wlast         integral         1     'h0  
  wvalid        integral         1     'h0  
  wready        integral         1     'h0  
  bvalid        integral         1     'h0  
  bready        integral         1     'h0  
  bresp         integral         2     'h0  
  s2mm_introut  integral         1     'h0  
--------------------------------------------

UVM_INFO /home/xe-user106/10x-Engineers/SOC-DV/TCP/axi_dma_verification/verif/stream_uvc/axis_write_monitor.sv(64) @ 10000: uvm_test_top.env.axis_wr_agt.monitor [] ///////////////////////////////////////////////////////////////////////
UVM_INFO /home/xe-user106/10x-Engineers/SOC-DV/TCP/axi_dma_verification/verif/stream_uvc/axis_write_monitor.sv(65) @ 10000: uvm_test_top.env.axis_wr_agt.monitor [] //                      S2MM WRITE Monitor                            //
UVM_INFO /home/xe-user106/10x-Engineers/SOC-DV/TCP/axi_dma_verification/verif/stream_uvc/axis_write_monitor.sv(66) @ 10000: uvm_test_top.env.axis_wr_agt.monitor [] ///////////////////////////////////////////////////////////////////////
UVM_INFO /home/xe-user106/10x-Engineers/SOC-DV/TCP/axi_dma_verification/verif/stream_uvc/axis_write_monitor.sv(67) @ 10000: uvm_test_top.env.axis_wr_agt.monitor [axis_write_monitor] Transaction Collected from AXI-Stream Write Slave :
----------------------------------------
Name       Type              Size  Value
----------------------------------------
item       axis_transaction  -     @1101
  tdata    integral          32    'h0  
  tkeep    integral          4     'h0  
  tvalid   integral          1     'h0  
  tready   integral          1     'h0  
  tlast    integral          1     'h0  
  introut  integral          1     'h0  
----------------------------------------

UVM_INFO /home/xe-user106/10x-Engineers/SOC-DV/TCP/axi_dma_verification/verif/environment/coverage_model.sv(268) @ 10000: uvm_test_top.env.axis_write_cov [\$unit_params_pkg_sv_891442008 .\axis_write_coverage::write ] Recieved AXIS READ transaction in Coverage Model
UVM_INFO /home/xe-user106/10x-Engineers/SOC-DV/TCP/axi_dma_verification/verif/stream_uvc/axis_write_monitor.sv(64) @ 30000: uvm_test_top.env.axis_wr_agt.monitor [] ///////////////////////////////////////////////////////////////////////
UVM_INFO /home/xe-user106/10x-Engineers/SOC-DV/TCP/axi_dma_verification/verif/stream_uvc/axis_write_monitor.sv(65) @ 30000: uvm_test_top.env.axis_wr_agt.monitor [] //                      S2MM WRITE Monitor                            //
UVM_INFO /home/xe-user106/10x-Engineers/SOC-DV/TCP/axi_dma_verification/verif/stream_uvc/axis_write_monitor.sv(66) @ 30000: uvm_test_top.env.axis_wr_agt.monitor [] ///////////////////////////////////////////////////////////////////////
UVM_INFO /home/xe-user106/10x-Engineers/SOC-DV/TCP/axi_dma_verification/verif/stream_uvc/axis_write_monitor.sv(67) @ 30000: uvm_test_top.env.axis_wr_agt.monitor [axis_write_monitor] Transaction Collected from AXI-Stream Write Slave :
----------------------------------------
Name       Type              Size  Value
----------------------------------------
item       axis_transaction  -     @1169
  tdata    integral          32    'h0  
  tkeep    integral          4     'h0  
  tvalid   integral          1     'h0  
  tready   integral          1     'h0  
  tlast    integral          1     'h0  
  introut  integral          1     'h0  
----------------------------------------

UVM_INFO /home/xe-user106/10x-Engineers/SOC-DV/TCP/axi_dma_verification/verif/environment/coverage_model.sv(268) @ 30000: uvm_test_top.env.axis_write_cov [\$unit_params_pkg_sv_891442008 .\axis_write_coverage::write ] Recieved AXIS READ transaction in Coverage Model
UVM_INFO /home/xe-user106/10x-Engineers/SOC-DV/TCP/axi_dma_verification/verif/environment/coverage_model.sv(326) @ 30000: uvm_test_top.env.s2mm_introut_cov [\$unit_params_pkg_sv_891442008 .\s2mm_introut_coverage::write ] Recieved AXI transaction in Coverage Model
UVM_INFO /home/xe-user106/10x-Engineers/SOC-DV/TCP/axi_dma_verification/verif/axi_coverage_monitor/axi_monitor.sv(95) @ 30000: uvm_test_top.env.axi_mon [axi_monitor] Transaction Collected :
--------------------------------------------
Name            Type             Size  Value
--------------------------------------------
item            axi_transaction  -     @1107
  araddr        integral         32    'h0  
  arlen         integral         8     'h0  
  arsize        integral         3     'h0  
  arburst       integral         2     'h0  
  arprot        integral         3     'h0  
  arcache       integral         4     'h3  
  arvalid       integral         1     'h0  
  arready       integral         1     'h0  
  rdata         integral         32    'h0  
  rresp         integral         2     'h0  
  rlast         integral         1     'h0  
  rvalid        integral         1     'h0  
  rready        integral         1     'h0  
  awaddr        integral         32    'h0  
  awlen         integral         8     'h0  
  awsize        integral         3     'h0  
  awburst       integral         2     'h0  
  awprot        integral         3     'h0  
  awcache       integral         4     'h3  
  awvalid       integral         1     'h0  
  awready       integral         1     'h0  
  wdata         integral         32    'h0  
  wstrb         integral         4     'h0  
  wlast         integral         1     'h0  
  wvalid        integral         1     'h0  
  wready        integral         1     'h0  
  bvalid        integral         1     'h0  
  bready        integral         1     'h0  
  bresp         integral         2     'h0  
  s2mm_introut  integral         1     'h0  
--------------------------------------------

UVM_INFO /home/xe-user106/10x-Engineers/SOC-DV/TCP/axi_dma_verification/verif/register_uvc/axi_lite_monitor.sv(79) @ 30000: uvm_test_top.env.axi_lite_agt.monitor [axi_lite_monitor] Transaction Collected :
--------------------------------------------------
Name                  Type             Size  Value
--------------------------------------------------
item                  reg_transaction  -     @1113
  s_axi_lite_awvalid  integral         1     'h0  
  s_axi_lite_awready  integral         1     'h0  
  s_axi_lite_awaddr   integral         10    'h0  
  s_axi_lite_wvalid   integral         1     'h0  
  s_axi_lite_wready   integral         1     'h0  
  s_axi_lite_wdata    integral         32    'h0  
  s_axi_lite_bresp    integral         2     'h0  
  s_axi_lite_bvalid   integral         1     'h0  
  s_axi_lite_bready   integral         1     'h0  
  s_axi_lite_arvalid  integral         1     'h0  
  s_axi_lite_arready  integral         1     'h0  
  s_axi_lite_araddr   integral         10    'h0  
  s_axi_lite_rvalid   integral         1     'h0  
  s_axi_lite_rready   integral         1     'h0  
  s_axi_lite_rdata    integral         32    'h0  
  s_axi_lite_rresp    integral         2     'h0  
--------------------------------------------------

UVM_INFO /home/xe-user106/10x-Engineers/SOC-DV/TCP/axi_dma_verification/verif/environment/coverage_model.sv(31) @ 30000: uvm_test_top.env.axi_lite_cov [\$unit_params_pkg_sv_891442008 .\axi_lite_coverage::write ] Recieved AXI Lite transaction in Coverage Model
UVM_INFO /home/xe-user106/10x-Engineers/SOC-DV/TCP/axi_dma_verification/verif/register_uvc/axi_lite_monitor.sv(79) @ 50000: uvm_test_top.env.axi_lite_agt.monitor [axi_lite_monitor] Transaction Collected :
--------------------------------------------------
Name                  Type             Size  Value
--------------------------------------------------
item                  reg_transaction  -     @1113
  s_axi_lite_awvalid  integral         1     'h0  
  s_axi_lite_awready  integral         1     'h0  
  s_axi_lite_awaddr   integral         10    'h0  
  s_axi_lite_wvalid   integral         1     'h0  
  s_axi_lite_wready   integral         1     'h0  
  s_axi_lite_wdata    integral         32    'h0  
  s_axi_lite_bresp    integral         2     'h0  
  s_axi_lite_bvalid   integral         1     'h0  
  s_axi_lite_bready   integral         1     'h0  
  s_axi_lite_arvalid  integral         1     'h0  
  s_axi_lite_arready  integral         1     'h0  
  s_axi_lite_araddr   integral         10    'h0  
  s_axi_lite_rvalid   integral         1     'h0  
  s_axi_lite_rready   integral         1     'h0  
  s_axi_lite_rdata    integral         32    'h0  
  s_axi_lite_rresp    integral         2     'h0  
--------------------------------------------------

UVM_INFO /home/xe-user106/10x-Engineers/SOC-DV/TCP/axi_dma_verification/verif/environment/coverage_model.sv(31) @ 50000: uvm_test_top.env.axi_lite_cov [\$unit_params_pkg_sv_891442008 .\axi_lite_coverage::write ] Recieved AXI Lite transaction in Coverage Model
UVM_INFO /home/xe-user106/10x-Engineers/SOC-DV/TCP/axi_dma_verification/verif/environment/coverage_model.sv(326) @ 50000: uvm_test_top.env.s2mm_introut_cov [\$unit_params_pkg_sv_891442008 .\s2mm_introut_coverage::write ] Recieved AXI transaction in Coverage Model
UVM_INFO /home/xe-user106/10x-Engineers/SOC-DV/TCP/axi_dma_verification/verif/axi_coverage_monitor/axi_monitor.sv(95) @ 50000: uvm_test_top.env.axi_mon [axi_monitor] Transaction Collected :
--------------------------------------------
Name            Type             Size  Value
--------------------------------------------
item            axi_transaction  -     @1107
  araddr        integral         32    'h0  
  arlen         integral         8     'h0  
  arsize        integral         3     'h0  
  arburst       integral         2     'h0  
  arprot        integral         3     'h0  
  arcache       integral         4     'h3  
  arvalid       integral         1     'h0  
  arready       integral         1     'h0  
  rdata         integral         32    'h0  
  rresp         integral         2     'h0  
  rlast         integral         1     'h0  
  rvalid        integral         1     'h0  
  rready        integral         1     'h0  
  awaddr        integral         32    'h0  
  awlen         integral         8     'h0  
  awsize        integral         3     'h0  
  awburst       integral         2     'h0  
  awprot        integral         3     'h0  
  awcache       integral         4     'h3  
  awvalid       integral         1     'h0  
  awready       integral         1     'h0  
  wdata         integral         32    'h0  
  wstrb         integral         4     'h0  
  wlast         integral         1     'h0  
  wvalid        integral         1     'h0  
  wready        integral         1     'h0  
  bvalid        integral         1     'h0  
  bready        integral         1     'h0  
  bresp         integral         2     'h0  
  s2mm_introut  integral         1     'h0  
--------------------------------------------

UVM_INFO /home/xe-user106/10x-Engineers/SOC-DV/TCP/axi_dma_verification/verif/stream_uvc/axis_write_monitor.sv(64) @ 50000: uvm_test_top.env.axis_wr_agt.monitor [] ///////////////////////////////////////////////////////////////////////
UVM_INFO /home/xe-user106/10x-Engineers/SOC-DV/TCP/axi_dma_verification/verif/stream_uvc/axis_write_monitor.sv(65) @ 50000: uvm_test_top.env.axis_wr_agt.monitor [] //                      S2MM WRITE Monitor                            //
UVM_INFO /home/xe-user106/10x-Engineers/SOC-DV/TCP/axi_dma_verification/verif/stream_uvc/axis_write_monitor.sv(66) @ 50000: uvm_test_top.env.axis_wr_agt.monitor [] ///////////////////////////////////////////////////////////////////////
UVM_INFO /home/xe-user106/10x-Engineers/SOC-DV/TCP/axi_dma_verification/verif/stream_uvc/axis_write_monitor.sv(67) @ 50000: uvm_test_top.env.axis_wr_agt.monitor [axis_write_monitor] Transaction Collected from AXI-Stream Write Slave :
----------------------------------------
Name       Type              Size  Value
----------------------------------------
item       axis_transaction  -     @1183
  tdata    integral          32    'h0  
  tkeep    integral          4     'h0  
  tvalid   integral          1     'h0  
  tready   integral          1     'h0  
  tlast    integral          1     'h0  
  introut  integral          1     'h0  
----------------------------------------

UVM_INFO /home/xe-user106/10x-Engineers/SOC-DV/TCP/axi_dma_verification/verif/environment/coverage_model.sv(268) @ 50000: uvm_test_top.env.axis_write_cov [\$unit_params_pkg_sv_891442008 .\axis_write_coverage::write ] Recieved AXIS READ transaction in Coverage Model
UVM_INFO /home/xe-user106/10x-Engineers/SOC-DV/TCP/axi_dma_verification/verif/stream_uvc/axis_write_monitor.sv(64) @ 70000: uvm_test_top.env.axis_wr_agt.monitor [] ///////////////////////////////////////////////////////////////////////
UVM_INFO /home/xe-user106/10x-Engineers/SOC-DV/TCP/axi_dma_verification/verif/stream_uvc/axis_write_monitor.sv(65) @ 70000: uvm_test_top.env.axis_wr_agt.monitor [] //                      S2MM WRITE Monitor                            //
UVM_INFO /home/xe-user106/10x-Engineers/SOC-DV/TCP/axi_dma_verification/verif/stream_uvc/axis_write_monitor.sv(66) @ 70000: uvm_test_top.env.axis_wr_agt.monitor [] ///////////////////////////////////////////////////////////////////////
UVM_INFO /home/xe-user106/10x-Engineers/SOC-DV/TCP/axi_dma_verification/verif/stream_uvc/axis_write_monitor.sv(67) @ 70000: uvm_test_top.env.axis_wr_agt.monitor [axis_write_monitor] Transaction Collected from AXI-Stream Write Slave :
----------------------------------------
Name       Type              Size  Value
----------------------------------------
item       axis_transaction  -     @1213
  tdata    integral          32    'h0  
  tkeep    integral          4     'h0  
  tvalid   integral          1     'h0  
  tready   integral          1     'h0  
  tlast    integral          1     'h0  
  introut  integral          1     'h0  
----------------------------------------

UVM_INFO /home/xe-user106/10x-Engineers/SOC-DV/TCP/axi_dma_verification/verif/environment/coverage_model.sv(268) @ 70000: uvm_test_top.env.axis_write_cov [\$unit_params_pkg_sv_891442008 .\axis_write_coverage::write ] Recieved AXIS READ transaction in Coverage Model
UVM_INFO /home/xe-user106/10x-Engineers/SOC-DV/TCP/axi_dma_verification/verif/environment/coverage_model.sv(326) @ 70000: uvm_test_top.env.s2mm_introut_cov [\$unit_params_pkg_sv_891442008 .\s2mm_introut_coverage::write ] Recieved AXI transaction in Coverage Model
UVM_INFO /home/xe-user106/10x-Engineers/SOC-DV/TCP/axi_dma_verification/verif/axi_coverage_monitor/axi_monitor.sv(95) @ 70000: uvm_test_top.env.axi_mon [axi_monitor] Transaction Collected :
--------------------------------------------
Name            Type             Size  Value
--------------------------------------------
item            axi_transaction  -     @1107
  araddr        integral         32    'h0  
  arlen         integral         8     'h0  
  arsize        integral         3     'h0  
  arburst       integral         2     'h0  
  arprot        integral         3     'h0  
  arcache       integral         4     'h3  
  arvalid       integral         1     'h0  
  arready       integral         1     'h0  
  rdata         integral         32    'h0  
  rresp         integral         2     'h0  
  rlast         integral         1     'h0  
  rvalid        integral         1     'h0  
  rready        integral         1     'h0  
  awaddr        integral         32    'h0  
  awlen         integral         8     'h0  
  awsize        integral         3     'h0  
  awburst       integral         2     'h0  
  awprot        integral         3     'h0  
  awcache       integral         4     'h3  
  awvalid       integral         1     'h0  
  awready       integral         1     'h0  
  wdata         integral         32    'h0  
  wstrb         integral         4     'h0  
  wlast         integral         1     'h0  
  wvalid        integral         1     'h0  
  wready        integral         1     'h0  
  bvalid        integral         1     'h0  
  bready        integral         1     'h0  
  bresp         integral         2     'h0  
  s2mm_introut  integral         1     'h0  
--------------------------------------------

UVM_INFO /home/xe-user106/10x-Engineers/SOC-DV/TCP/axi_dma_verification/verif/register_uvc/axi_lite_monitor.sv(79) @ 70000: uvm_test_top.env.axi_lite_agt.monitor [axi_lite_monitor] Transaction Collected :
--------------------------------------------------
Name                  Type             Size  Value
--------------------------------------------------
item                  reg_transaction  -     @1113
  s_axi_lite_awvalid  integral         1     'h0  
  s_axi_lite_awready  integral         1     'h0  
  s_axi_lite_awaddr   integral         10    'h0  
  s_axi_lite_wvalid   integral         1     'h0  
  s_axi_lite_wready   integral         1     'h0  
  s_axi_lite_wdata    integral         32    'h0  
  s_axi_lite_bresp    integral         2     'h0  
  s_axi_lite_bvalid   integral         1     'h0  
  s_axi_lite_bready   integral         1     'h0  
  s_axi_lite_arvalid  integral         1     'h0  
  s_axi_lite_arready  integral         1     'h0  
  s_axi_lite_araddr   integral         10    'h0  
  s_axi_lite_rvalid   integral         1     'h0  
  s_axi_lite_rready   integral         1     'h0  
  s_axi_lite_rdata    integral         32    'h0  
  s_axi_lite_rresp    integral         2     'h0  
--------------------------------------------------

UVM_INFO /home/xe-user106/10x-Engineers/SOC-DV/TCP/axi_dma_verification/verif/environment/coverage_model.sv(31) @ 70000: uvm_test_top.env.axi_lite_cov [\$unit_params_pkg_sv_891442008 .\axi_lite_coverage::write ] Recieved AXI Lite transaction in Coverage Model
UVM_INFO /home/xe-user106/10x-Engineers/SOC-DV/TCP/axi_dma_verification/verif/register_uvc/axi_lite_monitor.sv(79) @ 90000: uvm_test_top.env.axi_lite_agt.monitor [axi_lite_monitor] Transaction Collected :
--------------------------------------------------
Name                  Type             Size  Value
--------------------------------------------------
item                  reg_transaction  -     @1113
  s_axi_lite_awvalid  integral         1     'h0  
  s_axi_lite_awready  integral         1     'h0  
  s_axi_lite_awaddr   integral         10    'h0  
  s_axi_lite_wvalid   integral         1     'h0  
  s_axi_lite_wready   integral         1     'h0  
  s_axi_lite_wdata    integral         32    'h0  
  s_axi_lite_bresp    integral         2     'h0  
  s_axi_lite_bvalid   integral         1     'h0  
  s_axi_lite_bready   integral         1     'h0  
  s_axi_lite_arvalid  integral         1     'h0  
  s_axi_lite_arready  integral         1     'h0  
  s_axi_lite_araddr   integral         10    'h0  
  s_axi_lite_rvalid   integral         1     'h0  
  s_axi_lite_rready   integral         1     'h0  
  s_axi_lite_rdata    integral         32    'h0  
  s_axi_lite_rresp    integral         2     'h0  
--------------------------------------------------

UVM_INFO /home/xe-user106/10x-Engineers/SOC-DV/TCP/axi_dma_verification/verif/environment/coverage_model.sv(31) @ 90000: uvm_test_top.env.axi_lite_cov [\$unit_params_pkg_sv_891442008 .\axi_lite_coverage::write ] Recieved AXI Lite transaction in Coverage Model
UVM_INFO /home/xe-user106/10x-Engineers/SOC-DV/TCP/axi_dma_verification/verif/environment/coverage_model.sv(326) @ 90000: uvm_test_top.env.s2mm_introut_cov [\$unit_params_pkg_sv_891442008 .\s2mm_introut_coverage::write ] Recieved AXI transaction in Coverage Model
UVM_INFO /home/xe-user106/10x-Engineers/SOC-DV/TCP/axi_dma_verification/verif/axi_coverage_monitor/axi_monitor.sv(95) @ 90000: uvm_test_top.env.axi_mon [axi_monitor] Transaction Collected :
--------------------------------------------
Name            Type             Size  Value
--------------------------------------------
item            axi_transaction  -     @1107
  araddr        integral         32    'h0  
  arlen         integral         8     'h0  
  arsize        integral         3     'h0  
  arburst       integral         2     'h0  
  arprot        integral         3     'h0  
  arcache       integral         4     'h3  
  arvalid       integral         1     'h0  
  arready       integral         1     'h0  
  rdata         integral         32    'h0  
  rresp         integral         2     'h0  
  rlast         integral         1     'h0  
  rvalid        integral         1     'h0  
  rready        integral         1     'h0  
  awaddr        integral         32    'h0  
  awlen         integral         8     'h0  
  awsize        integral         3     'h0  
  awburst       integral         2     'h0  
  awprot        integral         3     'h0  
  awcache       integral         4     'h3  
  awvalid       integral         1     'h0  
  awready       integral         1     'h0  
  wdata         integral         32    'h0  
  wstrb         integral         4     'h0  
  wlast         integral         1     'h0  
  wvalid        integral         1     'h0  
  wready        integral         1     'h0  
  bvalid        integral         1     'h0  
  bready        integral         1     'h0  
  bresp         integral         2     'h0  
  s2mm_introut  integral         1     'h0  
--------------------------------------------

UVM_INFO /home/xe-user106/10x-Engineers/SOC-DV/TCP/axi_dma_verification/verif/stream_uvc/axis_write_monitor.sv(64) @ 90000: uvm_test_top.env.axis_wr_agt.monitor [] ///////////////////////////////////////////////////////////////////////
UVM_INFO /home/xe-user106/10x-Engineers/SOC-DV/TCP/axi_dma_verification/verif/stream_uvc/axis_write_monitor.sv(65) @ 90000: uvm_test_top.env.axis_wr_agt.monitor [] //                      S2MM WRITE Monitor                            //
UVM_INFO /home/xe-user106/10x-Engineers/SOC-DV/TCP/axi_dma_verification/verif/stream_uvc/axis_write_monitor.sv(66) @ 90000: uvm_test_top.env.axis_wr_agt.monitor [] ///////////////////////////////////////////////////////////////////////
UVM_INFO /home/xe-user106/10x-Engineers/SOC-DV/TCP/axi_dma_verification/verif/stream_uvc/axis_write_monitor.sv(67) @ 90000: uvm_test_top.env.axis_wr_agt.monitor [axis_write_monitor] Transaction Collected from AXI-Stream Write Slave :
----------------------------------------
Name       Type              Size  Value
----------------------------------------
item       axis_transaction  -     @1227
  tdata    integral          32    'h0  
  tkeep    integral          4     'h0  
  tvalid   integral          1     'h0  
  tready   integral          1     'h0  
  tlast    integral          1     'h0  
  introut  integral          1     'h0  
----------------------------------------

UVM_INFO /home/xe-user106/10x-Engineers/SOC-DV/TCP/axi_dma_verification/verif/environment/coverage_model.sv(268) @ 90000: uvm_test_top.env.axis_write_cov [\$unit_params_pkg_sv_891442008 .\axis_write_coverage::write ] Recieved AXIS READ transaction in Coverage Model
UVM_INFO /home/xe-user106/10x-Engineers/SOC-DV/TCP/axi_dma_verification/verif/stream_uvc/axis_write_monitor.sv(64) @ 110000: uvm_test_top.env.axis_wr_agt.monitor [] ///////////////////////////////////////////////////////////////////////
UVM_INFO /home/xe-user106/10x-Engineers/SOC-DV/TCP/axi_dma_verification/verif/stream_uvc/axis_write_monitor.sv(65) @ 110000: uvm_test_top.env.axis_wr_agt.monitor [] //                      S2MM WRITE Monitor                            //
UVM_INFO /home/xe-user106/10x-Engineers/SOC-DV/TCP/axi_dma_verification/verif/stream_uvc/axis_write_monitor.sv(66) @ 110000: uvm_test_top.env.axis_wr_agt.monitor [] ///////////////////////////////////////////////////////////////////////
UVM_INFO /home/xe-user106/10x-Engineers/SOC-DV/TCP/axi_dma_verification/verif/stream_uvc/axis_write_monitor.sv(67) @ 110000: uvm_test_top.env.axis_wr_agt.monitor [axis_write_monitor] Transaction Collected from AXI-Stream Write Slave :
----------------------------------------
Name       Type              Size  Value
----------------------------------------
item       axis_transaction  -     @1257
  tdata    integral          32    'h0  
  tkeep    integral          4     'h0  
  tvalid   integral          1     'h0  
  tready   integral          1     'h0  
  tlast    integral          1     'h0  
  introut  integral          1     'h0  
----------------------------------------

UVM_INFO /home/xe-user106/10x-Engineers/SOC-DV/TCP/axi_dma_verification/verif/environment/coverage_model.sv(268) @ 110000: uvm_test_top.env.axis_write_cov [\$unit_params_pkg_sv_891442008 .\axis_write_coverage::write ] Recieved AXIS READ transaction in Coverage Model
UVM_INFO /home/xe-user106/10x-Engineers/SOC-DV/TCP/axi_dma_verification/verif/environment/coverage_model.sv(326) @ 110000: uvm_test_top.env.s2mm_introut_cov [\$unit_params_pkg_sv_891442008 .\s2mm_introut_coverage::write ] Recieved AXI transaction in Coverage Model
UVM_INFO /home/xe-user106/10x-Engineers/SOC-DV/TCP/axi_dma_verification/verif/axi_coverage_monitor/axi_monitor.sv(95) @ 110000: uvm_test_top.env.axi_mon [axi_monitor] Transaction Collected :
--------------------------------------------
Name            Type             Size  Value
--------------------------------------------
item            axi_transaction  -     @1107
  araddr        integral         32    'h0  
  arlen         integral         8     'h0  
  arsize        integral         3     'h0  
  arburst       integral         2     'h0  
  arprot        integral         3     'h0  
  arcache       integral         4     'h3  
  arvalid       integral         1     'h0  
  arready       integral         1     'h0  
  rdata         integral         32    'h0  
  rresp         integral         2     'h0  
  rlast         integral         1     'h0  
  rvalid        integral         1     'h0  
  rready        integral         1     'h0  
  awaddr        integral         32    'h0  
  awlen         integral         8     'h0  
  awsize        integral         3     'h0  
  awburst       integral         2     'h0  
  awprot        integral         3     'h0  
  awcache       integral         4     'h3  
  awvalid       integral         1     'h0  
  awready       integral         1     'h0  
  wdata         integral         32    'h0  
  wstrb         integral         4     'h0  
  wlast         integral         1     'h0  
  wvalid        integral         1     'h0  
  wready        integral         1     'h0  
  bvalid        integral         1     'h0  
  bready        integral         1     'h0  
  bresp         integral         2     'h0  
  s2mm_introut  integral         1     'h0  
--------------------------------------------

UVM_INFO /home/xe-user106/10x-Engineers/SOC-DV/TCP/axi_dma_verification/verif/register_uvc/axi_lite_monitor.sv(79) @ 110000: uvm_test_top.env.axi_lite_agt.monitor [axi_lite_monitor] Transaction Collected :
--------------------------------------------------
Name                  Type             Size  Value
--------------------------------------------------
item                  reg_transaction  -     @1113
  s_axi_lite_awvalid  integral         1     'h0  
  s_axi_lite_awready  integral         1     'h0  
  s_axi_lite_awaddr   integral         10    'h0  
  s_axi_lite_wvalid   integral         1     'h0  
  s_axi_lite_wready   integral         1     'h0  
  s_axi_lite_wdata    integral         32    'h0  
  s_axi_lite_bresp    integral         2     'h0  
  s_axi_lite_bvalid   integral         1     'h0  
  s_axi_lite_bready   integral         1     'h0  
  s_axi_lite_arvalid  integral         1     'h0  
  s_axi_lite_arready  integral         1     'h0  
  s_axi_lite_araddr   integral         10    'h0  
  s_axi_lite_rvalid   integral         1     'h0  
  s_axi_lite_rready   integral         1     'h0  
  s_axi_lite_rdata    integral         32    'h0  
  s_axi_lite_rresp    integral         2     'h0  
--------------------------------------------------

UVM_INFO /home/xe-user106/10x-Engineers/SOC-DV/TCP/axi_dma_verification/verif/environment/coverage_model.sv(31) @ 110000: uvm_test_top.env.axi_lite_cov [\$unit_params_pkg_sv_891442008 .\axi_lite_coverage::write ] Recieved AXI Lite transaction in Coverage Model
UVM_INFO /home/xe-user106/10x-Engineers/SOC-DV/TCP/axi_dma_verification/verif/register_uvc/axi_lite_monitor.sv(79) @ 130000: uvm_test_top.env.axi_lite_agt.monitor [axi_lite_monitor] Transaction Collected :
--------------------------------------------------
Name                  Type             Size  Value
--------------------------------------------------
item                  reg_transaction  -     @1113
  s_axi_lite_awvalid  integral         1     'h0  
  s_axi_lite_awready  integral         1     'h0  
  s_axi_lite_awaddr   integral         10    'h0  
  s_axi_lite_wvalid   integral         1     'h0  
  s_axi_lite_wready   integral         1     'h0  
  s_axi_lite_wdata    integral         32    'h0  
  s_axi_lite_bresp    integral         2     'h0  
  s_axi_lite_bvalid   integral         1     'h0  
  s_axi_lite_bready   integral         1     'h0  
  s_axi_lite_arvalid  integral         1     'h0  
  s_axi_lite_arready  integral         1     'h0  
  s_axi_lite_araddr   integral         10    'h0  
  s_axi_lite_rvalid   integral         1     'h0  
  s_axi_lite_rready   integral         1     'h0  
  s_axi_lite_rdata    integral         32    'h0  
  s_axi_lite_rresp    integral         2     'h0  
--------------------------------------------------

UVM_INFO /home/xe-user106/10x-Engineers/SOC-DV/TCP/axi_dma_verification/verif/environment/coverage_model.sv(31) @ 130000: uvm_test_top.env.axi_lite_cov [\$unit_params_pkg_sv_891442008 .\axi_lite_coverage::write ] Recieved AXI Lite transaction in Coverage Model
UVM_INFO /home/xe-user106/10x-Engineers/SOC-DV/TCP/axi_dma_verification/verif/environment/coverage_model.sv(326) @ 130000: uvm_test_top.env.s2mm_introut_cov [\$unit_params_pkg_sv_891442008 .\s2mm_introut_coverage::write ] Recieved AXI transaction in Coverage Model
UVM_INFO /home/xe-user106/10x-Engineers/SOC-DV/TCP/axi_dma_verification/verif/axi_coverage_monitor/axi_monitor.sv(95) @ 130000: uvm_test_top.env.axi_mon [axi_monitor] Transaction Collected :
--------------------------------------------
Name            Type             Size  Value
--------------------------------------------
item            axi_transaction  -     @1107
  araddr        integral         32    'h0  
  arlen         integral         8     'h0  
  arsize        integral         3     'h0  
  arburst       integral         2     'h0  
  arprot        integral         3     'h0  
  arcache       integral         4     'h3  
  arvalid       integral         1     'h0  
  arready       integral         1     'h0  
  rdata         integral         32    'h0  
  rresp         integral         2     'h0  
  rlast         integral         1     'h0  
  rvalid        integral         1     'h0  
  rready        integral         1     'h0  
  awaddr        integral         32    'h0  
  awlen         integral         8     'h0  
  awsize        integral         3     'h0  
  awburst       integral         2     'h0  
  awprot        integral         3     'h0  
  awcache       integral         4     'h3  
  awvalid       integral         1     'h0  
  awready       integral         1     'h0  
  wdata         integral         32    'h0  
  wstrb         integral         4     'h0  
  wlast         integral         1     'h0  
  wvalid        integral         1     'h0  
  wready        integral         1     'h0  
  bvalid        integral         1     'h0  
  bready        integral         1     'h0  
  bresp         integral         2     'h0  
  s2mm_introut  integral         1     'h0  
--------------------------------------------

UVM_INFO /home/xe-user106/10x-Engineers/SOC-DV/TCP/axi_dma_verification/verif/stream_uvc/axis_write_monitor.sv(64) @ 130000: uvm_test_top.env.axis_wr_agt.monitor [] ///////////////////////////////////////////////////////////////////////
UVM_INFO /home/xe-user106/10x-Engineers/SOC-DV/TCP/axi_dma_verification/verif/stream_uvc/axis_write_monitor.sv(65) @ 130000: uvm_test_top.env.axis_wr_agt.monitor [] //                      S2MM WRITE Monitor                            //
UVM_INFO /home/xe-user106/10x-Engineers/SOC-DV/TCP/axi_dma_verification/verif/stream_uvc/axis_write_monitor.sv(66) @ 130000: uvm_test_top.env.axis_wr_agt.monitor [] ///////////////////////////////////////////////////////////////////////
UVM_INFO /home/xe-user106/10x-Engineers/SOC-DV/TCP/axi_dma_verification/verif/stream_uvc/axis_write_monitor.sv(67) @ 130000: uvm_test_top.env.axis_wr_agt.monitor [axis_write_monitor] Transaction Collected from AXI-Stream Write Slave :
----------------------------------------
Name       Type              Size  Value
----------------------------------------
item       axis_transaction  -     @1271
  tdata    integral          32    'h0  
  tkeep    integral          4     'h0  
  tvalid   integral          1     'h0  
  tready   integral          1     'h0  
  tlast    integral          1     'h0  
  introut  integral          1     'h0  
----------------------------------------

UVM_INFO /home/xe-user106/10x-Engineers/SOC-DV/TCP/axi_dma_verification/verif/environment/coverage_model.sv(268) @ 130000: uvm_test_top.env.axis_write_cov [\$unit_params_pkg_sv_891442008 .\axis_write_coverage::write ] Recieved AXIS READ transaction in Coverage Model
UVM_INFO /home/xe-user106/10x-Engineers/SOC-DV/TCP/axi_dma_verification/verif/stream_uvc/axis_write_monitor.sv(64) @ 150000: uvm_test_top.env.axis_wr_agt.monitor [] ///////////////////////////////////////////////////////////////////////
UVM_INFO /home/xe-user106/10x-Engineers/SOC-DV/TCP/axi_dma_verification/verif/stream_uvc/axis_write_monitor.sv(65) @ 150000: uvm_test_top.env.axis_wr_agt.monitor [] //                      S2MM WRITE Monitor                            //
UVM_INFO /home/xe-user106/10x-Engineers/SOC-DV/TCP/axi_dma_verification/verif/stream_uvc/axis_write_monitor.sv(66) @ 150000: uvm_test_top.env.axis_wr_agt.monitor [] ///////////////////////////////////////////////////////////////////////
UVM_INFO /home/xe-user106/10x-Engineers/SOC-DV/TCP/axi_dma_verification/verif/stream_uvc/axis_write_monitor.sv(67) @ 150000: uvm_test_top.env.axis_wr_agt.monitor [axis_write_monitor] Transaction Collected from AXI-Stream Write Slave :
----------------------------------------
Name       Type              Size  Value
----------------------------------------
item       axis_transaction  -     @1301
  tdata    integral          32    'h0  
  tkeep    integral          4     'h0  
  tvalid   integral          1     'h0  
  tready   integral          1     'h0  
  tlast    integral          1     'h0  
  introut  integral          1     'h0  
----------------------------------------

UVM_INFO /home/xe-user106/10x-Engineers/SOC-DV/TCP/axi_dma_verification/verif/environment/coverage_model.sv(268) @ 150000: uvm_test_top.env.axis_write_cov [\$unit_params_pkg_sv_891442008 .\axis_write_coverage::write ] Recieved AXIS READ transaction in Coverage Model
UVM_INFO /home/xe-user106/10x-Engineers/SOC-DV/TCP/axi_dma_verification/verif/environment/coverage_model.sv(326) @ 150000: uvm_test_top.env.s2mm_introut_cov [\$unit_params_pkg_sv_891442008 .\s2mm_introut_coverage::write ] Recieved AXI transaction in Coverage Model
UVM_INFO /home/xe-user106/10x-Engineers/SOC-DV/TCP/axi_dma_verification/verif/axi_coverage_monitor/axi_monitor.sv(95) @ 150000: uvm_test_top.env.axi_mon [axi_monitor] Transaction Collected :
--------------------------------------------
Name            Type             Size  Value
--------------------------------------------
item            axi_transaction  -     @1107
  araddr        integral         32    'h0  
  arlen         integral         8     'h0  
  arsize        integral         3     'h0  
  arburst       integral         2     'h0  
  arprot        integral         3     'h0  
  arcache       integral         4     'h3  
  arvalid       integral         1     'h0  
  arready       integral         1     'h0  
  rdata         integral         32    'h0  
  rresp         integral         2     'h0  
  rlast         integral         1     'h0  
  rvalid        integral         1     'h0  
  rready        integral         1     'h0  
  awaddr        integral         32    'h0  
  awlen         integral         8     'h0  
  awsize        integral         3     'h0  
  awburst       integral         2     'h0  
  awprot        integral         3     'h0  
  awcache       integral         4     'h3  
  awvalid       integral         1     'h0  
  awready       integral         1     'h0  
  wdata         integral         32    'h0  
  wstrb         integral         4     'h0  
  wlast         integral         1     'h0  
  wvalid        integral         1     'h0  
  wready        integral         1     'h0  
  bvalid        integral         1     'h0  
  bready        integral         1     'h0  
  bresp         integral         2     'h0  
  s2mm_introut  integral         1     'h0  
--------------------------------------------

UVM_INFO /home/xe-user106/10x-Engineers/SOC-DV/TCP/axi_dma_verification/verif/register_uvc/axi_lite_monitor.sv(79) @ 150000: uvm_test_top.env.axi_lite_agt.monitor [axi_lite_monitor] Transaction Collected :
--------------------------------------------------
Name                  Type             Size  Value
--------------------------------------------------
item                  reg_transaction  -     @1113
  s_axi_lite_awvalid  integral         1     'h0  
  s_axi_lite_awready  integral         1     'h0  
  s_axi_lite_awaddr   integral         10    'h0  
  s_axi_lite_wvalid   integral         1     'h0  
  s_axi_lite_wready   integral         1     'h0  
  s_axi_lite_wdata    integral         32    'h0  
  s_axi_lite_bresp    integral         2     'h0  
  s_axi_lite_bvalid   integral         1     'h0  
  s_axi_lite_bready   integral         1     'h0  
  s_axi_lite_arvalid  integral         1     'h0  
  s_axi_lite_arready  integral         1     'h0  
  s_axi_lite_araddr   integral         10    'h0  
  s_axi_lite_rvalid   integral         1     'h0  
  s_axi_lite_rready   integral         1     'h0  
  s_axi_lite_rdata    integral         32    'h0  
  s_axi_lite_rresp    integral         2     'h0  
--------------------------------------------------

UVM_INFO /home/xe-user106/10x-Engineers/SOC-DV/TCP/axi_dma_verification/verif/environment/coverage_model.sv(31) @ 150000: uvm_test_top.env.axi_lite_cov [\$unit_params_pkg_sv_891442008 .\axi_lite_coverage::write ] Recieved AXI Lite transaction in Coverage Model
UVM_INFO /home/xe-user106/10x-Engineers/SOC-DV/TCP/axi_dma_verification/verif/register_uvc/axi_lite_monitor.sv(79) @ 170000: uvm_test_top.env.axi_lite_agt.monitor [axi_lite_monitor] Transaction Collected :
--------------------------------------------------
Name                  Type             Size  Value
--------------------------------------------------
item                  reg_transaction  -     @1113
  s_axi_lite_awvalid  integral         1     'h0  
  s_axi_lite_awready  integral         1     'h0  
  s_axi_lite_awaddr   integral         10    'h0  
  s_axi_lite_wvalid   integral         1     'h0  
  s_axi_lite_wready   integral         1     'h0  
  s_axi_lite_wdata    integral         32    'h0  
  s_axi_lite_bresp    integral         2     'h0  
  s_axi_lite_bvalid   integral         1     'h0  
  s_axi_lite_bready   integral         1     'h0  
  s_axi_lite_arvalid  integral         1     'h0  
  s_axi_lite_arready  integral         1     'h0  
  s_axi_lite_araddr   integral         10    'h0  
  s_axi_lite_rvalid   integral         1     'h0  
  s_axi_lite_rready   integral         1     'h0  
  s_axi_lite_rdata    integral         32    'h0  
  s_axi_lite_rresp    integral         2     'h0  
--------------------------------------------------

UVM_INFO /home/xe-user106/10x-Engineers/SOC-DV/TCP/axi_dma_verification/verif/environment/coverage_model.sv(31) @ 170000: uvm_test_top.env.axi_lite_cov [\$unit_params_pkg_sv_891442008 .\axi_lite_coverage::write ] Recieved AXI Lite transaction in Coverage Model
UVM_INFO /home/xe-user106/10x-Engineers/SOC-DV/TCP/axi_dma_verification/verif/environment/coverage_model.sv(326) @ 170000: uvm_test_top.env.s2mm_introut_cov [\$unit_params_pkg_sv_891442008 .\s2mm_introut_coverage::write ] Recieved AXI transaction in Coverage Model
UVM_INFO /home/xe-user106/10x-Engineers/SOC-DV/TCP/axi_dma_verification/verif/axi_coverage_monitor/axi_monitor.sv(95) @ 170000: uvm_test_top.env.axi_mon [axi_monitor] Transaction Collected :
--------------------------------------------
Name            Type             Size  Value
--------------------------------------------
item            axi_transaction  -     @1107
  araddr        integral         32    'h0  
  arlen         integral         8     'h0  
  arsize        integral         3     'h0  
  arburst       integral         2     'h0  
  arprot        integral         3     'h0  
  arcache       integral         4     'h3  
  arvalid       integral         1     'h0  
  arready       integral         1     'h0  
  rdata         integral         32    'h0  
  rresp         integral         2     'h0  
  rlast         integral         1     'h0  
  rvalid        integral         1     'h0  
  rready        integral         1     'h0  
  awaddr        integral         32    'h0  
  awlen         integral         8     'h0  
  awsize        integral         3     'h0  
  awburst       integral         2     'h0  
  awprot        integral         3     'h0  
  awcache       integral         4     'h3  
  awvalid       integral         1     'h0  
  awready       integral         1     'h0  
  wdata         integral         32    'h0  
  wstrb         integral         4     'h0  
  wlast         integral         1     'h0  
  wvalid        integral         1     'h0  
  wready        integral         1     'h0  
  bvalid        integral         1     'h0  
  bready        integral         1     'h0  
  bresp         integral         2     'h0  
  s2mm_introut  integral         1     'h0  
--------------------------------------------

UVM_INFO /home/xe-user106/10x-Engineers/SOC-DV/TCP/axi_dma_verification/verif/stream_uvc/axis_write_monitor.sv(64) @ 170000: uvm_test_top.env.axis_wr_agt.monitor [] ///////////////////////////////////////////////////////////////////////
UVM_INFO /home/xe-user106/10x-Engineers/SOC-DV/TCP/axi_dma_verification/verif/stream_uvc/axis_write_monitor.sv(65) @ 170000: uvm_test_top.env.axis_wr_agt.monitor [] //                      S2MM WRITE Monitor                            //
UVM_INFO /home/xe-user106/10x-Engineers/SOC-DV/TCP/axi_dma_verification/verif/stream_uvc/axis_write_monitor.sv(66) @ 170000: uvm_test_top.env.axis_wr_agt.monitor [] ///////////////////////////////////////////////////////////////////////
UVM_INFO /home/xe-user106/10x-Engineers/SOC-DV/TCP/axi_dma_verification/verif/stream_uvc/axis_write_monitor.sv(67) @ 170000: uvm_test_top.env.axis_wr_agt.monitor [axis_write_monitor] Transaction Collected from AXI-Stream Write Slave :
----------------------------------------
Name       Type              Size  Value
----------------------------------------
item       axis_transaction  -     @1315
  tdata    integral          32    'h0  
  tkeep    integral          4     'h0  
  tvalid   integral          1     'h0  
  tready   integral          1     'h0  
  tlast    integral          1     'h0  
  introut  integral          1     'h0  
----------------------------------------

UVM_INFO /home/xe-user106/10x-Engineers/SOC-DV/TCP/axi_dma_verification/verif/environment/coverage_model.sv(268) @ 170000: uvm_test_top.env.axis_write_cov [\$unit_params_pkg_sv_891442008 .\axis_write_coverage::write ] Recieved AXIS READ transaction in Coverage Model
UVM_INFO /home/xe-user106/10x-Engineers/SOC-DV/TCP/axi_dma_verification/verif/stream_uvc/axis_write_monitor.sv(64) @ 190000: uvm_test_top.env.axis_wr_agt.monitor [] ///////////////////////////////////////////////////////////////////////
UVM_INFO /home/xe-user106/10x-Engineers/SOC-DV/TCP/axi_dma_verification/verif/stream_uvc/axis_write_monitor.sv(65) @ 190000: uvm_test_top.env.axis_wr_agt.monitor [] //                      S2MM WRITE Monitor                            //
UVM_INFO /home/xe-user106/10x-Engineers/SOC-DV/TCP/axi_dma_verification/verif/stream_uvc/axis_write_monitor.sv(66) @ 190000: uvm_test_top.env.axis_wr_agt.monitor [] ///////////////////////////////////////////////////////////////////////
UVM_INFO /home/xe-user106/10x-Engineers/SOC-DV/TCP/axi_dma_verification/verif/stream_uvc/axis_write_monitor.sv(67) @ 190000: uvm_test_top.env.axis_wr_agt.monitor [axis_write_monitor] Transaction Collected from AXI-Stream Write Slave :
----------------------------------------
Name       Type              Size  Value
----------------------------------------
item       axis_transaction  -     @1345
  tdata    integral          32    'h0  
  tkeep    integral          4     'h0  
  tvalid   integral          1     'h0  
  tready   integral          1     'h0  
  tlast    integral          1     'h0  
  introut  integral          1     'h0  
----------------------------------------

UVM_INFO /home/xe-user106/10x-Engineers/SOC-DV/TCP/axi_dma_verification/verif/environment/coverage_model.sv(268) @ 190000: uvm_test_top.env.axis_write_cov [\$unit_params_pkg_sv_891442008 .\axis_write_coverage::write ] Recieved AXIS READ transaction in Coverage Model
UVM_INFO /home/xe-user106/10x-Engineers/SOC-DV/TCP/axi_dma_verification/verif/environment/coverage_model.sv(326) @ 190000: uvm_test_top.env.s2mm_introut_cov [\$unit_params_pkg_sv_891442008 .\s2mm_introut_coverage::write ] Recieved AXI transaction in Coverage Model
UVM_INFO /home/xe-user106/10x-Engineers/SOC-DV/TCP/axi_dma_verification/verif/axi_coverage_monitor/axi_monitor.sv(95) @ 190000: uvm_test_top.env.axi_mon [axi_monitor] Transaction Collected :
--------------------------------------------
Name            Type             Size  Value
--------------------------------------------
item            axi_transaction  -     @1107
  araddr        integral         32    'h0  
  arlen         integral         8     'h0  
  arsize        integral         3     'h0  
  arburst       integral         2     'h0  
  arprot        integral         3     'h0  
  arcache       integral         4     'h3  
  arvalid       integral         1     'h0  
  arready       integral         1     'h0  
  rdata         integral         32    'h0  
  rresp         integral         2     'h0  
  rlast         integral         1     'h0  
  rvalid        integral         1     'h0  
  rready        integral         1     'h0  
  awaddr        integral         32    'h0  
  awlen         integral         8     'h0  
  awsize        integral         3     'h0  
  awburst       integral         2     'h0  
  awprot        integral         3     'h0  
  awcache       integral         4     'h3  
  awvalid       integral         1     'h0  
  awready       integral         1     'h0  
  wdata         integral         32    'h0  
  wstrb         integral         4     'h0  
  wlast         integral         1     'h0  
  wvalid        integral         1     'h0  
  wready        integral         1     'h0  
  bvalid        integral         1     'h0  
  bready        integral         1     'h0  
  bresp         integral         2     'h0  
  s2mm_introut  integral         1     'h0  
--------------------------------------------

UVM_INFO /home/xe-user106/10x-Engineers/SOC-DV/TCP/axi_dma_verification/verif/register_uvc/axi_lite_monitor.sv(79) @ 190000: uvm_test_top.env.axi_lite_agt.monitor [axi_lite_monitor] Transaction Collected :
--------------------------------------------------
Name                  Type             Size  Value
--------------------------------------------------
item                  reg_transaction  -     @1113
  s_axi_lite_awvalid  integral         1     'h0  
  s_axi_lite_awready  integral         1     'h0  
  s_axi_lite_awaddr   integral         10    'h0  
  s_axi_lite_wvalid   integral         1     'h0  
  s_axi_lite_wready   integral         1     'h0  
  s_axi_lite_wdata    integral         32    'h0  
  s_axi_lite_bresp    integral         2     'h0  
  s_axi_lite_bvalid   integral         1     'h0  
  s_axi_lite_bready   integral         1     'h0  
  s_axi_lite_arvalid  integral         1     'h0  
  s_axi_lite_arready  integral         1     'h0  
  s_axi_lite_araddr   integral         10    'h0  
  s_axi_lite_rvalid   integral         1     'h0  
  s_axi_lite_rready   integral         1     'h0  
  s_axi_lite_rdata    integral         32    'h0  
  s_axi_lite_rresp    integral         2     'h0  
--------------------------------------------------

UVM_INFO /home/xe-user106/10x-Engineers/SOC-DV/TCP/axi_dma_verification/verif/environment/coverage_model.sv(31) @ 190000: uvm_test_top.env.axi_lite_cov [\$unit_params_pkg_sv_891442008 .\axi_lite_coverage::write ] Recieved AXI Lite transaction in Coverage Model
UVM_INFO /home/xe-user106/10x-Engineers/SOC-DV/TCP/axi_dma_verification/verif/register_uvc/axi_lite_monitor.sv(79) @ 210000: uvm_test_top.env.axi_lite_agt.monitor [axi_lite_monitor] Transaction Collected :
--------------------------------------------------
Name                  Type             Size  Value
--------------------------------------------------
item                  reg_transaction  -     @1113
  s_axi_lite_awvalid  integral         1     'h0  
  s_axi_lite_awready  integral         1     'h0  
  s_axi_lite_awaddr   integral         10    'h0  
  s_axi_lite_wvalid   integral         1     'h0  
  s_axi_lite_wready   integral         1     'h0  
  s_axi_lite_wdata    integral         32    'h0  
  s_axi_lite_bresp    integral         2     'h0  
  s_axi_lite_bvalid   integral         1     'h0  
  s_axi_lite_bready   integral         1     'h0  
  s_axi_lite_arvalid  integral         1     'h0  
  s_axi_lite_arready  integral         1     'h0  
  s_axi_lite_araddr   integral         10    'h0  
  s_axi_lite_rvalid   integral         1     'h0  
  s_axi_lite_rready   integral         1     'h0  
  s_axi_lite_rdata    integral         32    'h0  
  s_axi_lite_rresp    integral         2     'h0  
--------------------------------------------------

UVM_INFO /home/xe-user106/10x-Engineers/SOC-DV/TCP/axi_dma_verification/verif/environment/coverage_model.sv(31) @ 210000: uvm_test_top.env.axi_lite_cov [\$unit_params_pkg_sv_891442008 .\axi_lite_coverage::write ] Recieved AXI Lite transaction in Coverage Model
UVM_INFO /home/xe-user106/10x-Engineers/SOC-DV/TCP/axi_dma_verification/verif/environment/coverage_model.sv(326) @ 210000: uvm_test_top.env.s2mm_introut_cov [\$unit_params_pkg_sv_891442008 .\s2mm_introut_coverage::write ] Recieved AXI transaction in Coverage Model
UVM_INFO /home/xe-user106/10x-Engineers/SOC-DV/TCP/axi_dma_verification/verif/axi_coverage_monitor/axi_monitor.sv(95) @ 210000: uvm_test_top.env.axi_mon [axi_monitor] Transaction Collected :
--------------------------------------------
Name            Type             Size  Value
--------------------------------------------
item            axi_transaction  -     @1107
  araddr        integral         32    'h0  
  arlen         integral         8     'h0  
  arsize        integral         3     'h0  
  arburst       integral         2     'h0  
  arprot        integral         3     'h0  
  arcache       integral         4     'h3  
  arvalid       integral         1     'h0  
  arready       integral         1     'h0  
  rdata         integral         32    'h0  
  rresp         integral         2     'h0  
  rlast         integral         1     'h0  
  rvalid        integral         1     'h0  
  rready        integral         1     'h0  
  awaddr        integral         32    'h0  
  awlen         integral         8     'h0  
  awsize        integral         3     'h0  
  awburst       integral         2     'h0  
  awprot        integral         3     'h0  
  awcache       integral         4     'h3  
  awvalid       integral         1     'h0  
  awready       integral         1     'h0  
  wdata         integral         32    'h0  
  wstrb         integral         4     'h0  
  wlast         integral         1     'h0  
  wvalid        integral         1     'h0  
  wready        integral         1     'h0  
  bvalid        integral         1     'h0  
  bready        integral         1     'h0  
  bresp         integral         2     'h0  
  s2mm_introut  integral         1     'h0  
--------------------------------------------

UVM_INFO /home/xe-user106/10x-Engineers/SOC-DV/TCP/axi_dma_verification/verif/stream_uvc/axis_write_monitor.sv(64) @ 210000: uvm_test_top.env.axis_wr_agt.monitor [] ///////////////////////////////////////////////////////////////////////
UVM_INFO /home/xe-user106/10x-Engineers/SOC-DV/TCP/axi_dma_verification/verif/stream_uvc/axis_write_monitor.sv(65) @ 210000: uvm_test_top.env.axis_wr_agt.monitor [] //                      S2MM WRITE Monitor                            //
UVM_INFO /home/xe-user106/10x-Engineers/SOC-DV/TCP/axi_dma_verification/verif/stream_uvc/axis_write_monitor.sv(66) @ 210000: uvm_test_top.env.axis_wr_agt.monitor [] ///////////////////////////////////////////////////////////////////////
UVM_INFO /home/xe-user106/10x-Engineers/SOC-DV/TCP/axi_dma_verification/verif/stream_uvc/axis_write_monitor.sv(67) @ 210000: uvm_test_top.env.axis_wr_agt.monitor [axis_write_monitor] Transaction Collected from AXI-Stream Write Slave :
----------------------------------------
Name       Type              Size  Value
----------------------------------------
item       axis_transaction  -     @1359
  tdata    integral          32    'h0  
  tkeep    integral          4     'h0  
  tvalid   integral          1     'h0  
  tready   integral          1     'h0  
  tlast    integral          1     'h0  
  introut  integral          1     'h0  
----------------------------------------

UVM_INFO /home/xe-user106/10x-Engineers/SOC-DV/TCP/axi_dma_verification/verif/environment/coverage_model.sv(268) @ 210000: uvm_test_top.env.axis_write_cov [\$unit_params_pkg_sv_891442008 .\axis_write_coverage::write ] Recieved AXIS READ transaction in Coverage Model
UVM_INFO /home/xe-user106/10x-Engineers/SOC-DV/TCP/axi_dma_verification/verif/stream_uvc/axis_write_monitor.sv(64) @ 230000: uvm_test_top.env.axis_wr_agt.monitor [] ///////////////////////////////////////////////////////////////////////
UVM_INFO /home/xe-user106/10x-Engineers/SOC-DV/TCP/axi_dma_verification/verif/stream_uvc/axis_write_monitor.sv(65) @ 230000: uvm_test_top.env.axis_wr_agt.monitor [] //                      S2MM WRITE Monitor                            //
UVM_INFO /home/xe-user106/10x-Engineers/SOC-DV/TCP/axi_dma_verification/verif/stream_uvc/axis_write_monitor.sv(66) @ 230000: uvm_test_top.env.axis_wr_agt.monitor [] ///////////////////////////////////////////////////////////////////////
UVM_INFO /home/xe-user106/10x-Engineers/SOC-DV/TCP/axi_dma_verification/verif/stream_uvc/axis_write_monitor.sv(67) @ 230000: uvm_test_top.env.axis_wr_agt.monitor [axis_write_monitor] Transaction Collected from AXI-Stream Write Slave :
----------------------------------------
Name       Type              Size  Value
----------------------------------------
item       axis_transaction  -     @1389
  tdata    integral          32    'h0  
  tkeep    integral          4     'h0  
  tvalid   integral          1     'h0  
  tready   integral          1     'h0  
  tlast    integral          1     'h0  
  introut  integral          1     'h0  
----------------------------------------

UVM_INFO /home/xe-user106/10x-Engineers/SOC-DV/TCP/axi_dma_verification/verif/environment/coverage_model.sv(268) @ 230000: uvm_test_top.env.axis_write_cov [\$unit_params_pkg_sv_891442008 .\axis_write_coverage::write ] Recieved AXIS READ transaction in Coverage Model
UVM_INFO /home/xe-user106/10x-Engineers/SOC-DV/TCP/axi_dma_verification/verif/environment/coverage_model.sv(326) @ 230000: uvm_test_top.env.s2mm_introut_cov [\$unit_params_pkg_sv_891442008 .\s2mm_introut_coverage::write ] Recieved AXI transaction in Coverage Model
UVM_INFO /home/xe-user106/10x-Engineers/SOC-DV/TCP/axi_dma_verification/verif/axi_coverage_monitor/axi_monitor.sv(95) @ 230000: uvm_test_top.env.axi_mon [axi_monitor] Transaction Collected :
--------------------------------------------
Name            Type             Size  Value
--------------------------------------------
item            axi_transaction  -     @1107
  araddr        integral         32    'h0  
  arlen         integral         8     'h0  
  arsize        integral         3     'h0  
  arburst       integral         2     'h0  
  arprot        integral         3     'h0  
  arcache       integral         4     'h3  
  arvalid       integral         1     'h0  
  arready       integral         1     'h0  
  rdata         integral         32    'h0  
  rresp         integral         2     'h0  
  rlast         integral         1     'h0  
  rvalid        integral         1     'h0  
  rready        integral         1     'h0  
  awaddr        integral         32    'h0  
  awlen         integral         8     'h0  
  awsize        integral         3     'h0  
  awburst       integral         2     'h0  
  awprot        integral         3     'h0  
  awcache       integral         4     'h3  
  awvalid       integral         1     'h0  
  awready       integral         1     'h0  
  wdata         integral         32    'h0  
  wstrb         integral         4     'h0  
  wlast         integral         1     'h0  
  wvalid        integral         1     'h0  
  wready        integral         1     'h0  
  bvalid        integral         1     'h0  
  bready        integral         1     'h0  
  bresp         integral         2     'h0  
  s2mm_introut  integral         1     'h0  
--------------------------------------------

UVM_INFO /home/xe-user106/10x-Engineers/SOC-DV/TCP/axi_dma_verification/verif/register_uvc/axi_lite_monitor.sv(79) @ 230000: uvm_test_top.env.axi_lite_agt.monitor [axi_lite_monitor] Transaction Collected :
--------------------------------------------------
Name                  Type             Size  Value
--------------------------------------------------
item                  reg_transaction  -     @1113
  s_axi_lite_awvalid  integral         1     'h0  
  s_axi_lite_awready  integral         1     'h0  
  s_axi_lite_awaddr   integral         10    'h0  
  s_axi_lite_wvalid   integral         1     'h0  
  s_axi_lite_wready   integral         1     'h0  
  s_axi_lite_wdata    integral         32    'h0  
  s_axi_lite_bresp    integral         2     'h0  
  s_axi_lite_bvalid   integral         1     'h0  
  s_axi_lite_bready   integral         1     'h0  
  s_axi_lite_arvalid  integral         1     'h0  
  s_axi_lite_arready  integral         1     'h0  
  s_axi_lite_araddr   integral         10    'h0  
  s_axi_lite_rvalid   integral         1     'h0  
  s_axi_lite_rready   integral         1     'h0  
  s_axi_lite_rdata    integral         32    'h0  
  s_axi_lite_rresp    integral         2     'h0  
--------------------------------------------------

UVM_INFO /home/xe-user106/10x-Engineers/SOC-DV/TCP/axi_dma_verification/verif/environment/coverage_model.sv(31) @ 230000: uvm_test_top.env.axi_lite_cov [\$unit_params_pkg_sv_891442008 .\axi_lite_coverage::write ] Recieved AXI Lite transaction in Coverage Model
UVM_INFO /home/xe-user106/10x-Engineers/SOC-DV/TCP/axi_dma_verification/verif/register_uvc/axi_lite_monitor.sv(79) @ 250000: uvm_test_top.env.axi_lite_agt.monitor [axi_lite_monitor] Transaction Collected :
--------------------------------------------------
Name                  Type             Size  Value
--------------------------------------------------
item                  reg_transaction  -     @1113
  s_axi_lite_awvalid  integral         1     'h0  
  s_axi_lite_awready  integral         1     'h0  
  s_axi_lite_awaddr   integral         10    'h0  
  s_axi_lite_wvalid   integral         1     'h0  
  s_axi_lite_wready   integral         1     'h0  
  s_axi_lite_wdata    integral         32    'h0  
  s_axi_lite_bresp    integral         2     'h0  
  s_axi_lite_bvalid   integral         1     'h0  
  s_axi_lite_bready   integral         1     'h0  
  s_axi_lite_arvalid  integral         1     'h0  
  s_axi_lite_arready  integral         1     'h0  
  s_axi_lite_araddr   integral         10    'h0  
  s_axi_lite_rvalid   integral         1     'h0  
  s_axi_lite_rready   integral         1     'h0  
  s_axi_lite_rdata    integral         32    'h0  
  s_axi_lite_rresp    integral         2     'h0  
--------------------------------------------------

UVM_INFO /home/xe-user106/10x-Engineers/SOC-DV/TCP/axi_dma_verification/verif/environment/coverage_model.sv(31) @ 250000: uvm_test_top.env.axi_lite_cov [\$unit_params_pkg_sv_891442008 .\axi_lite_coverage::write ] Recieved AXI Lite transaction in Coverage Model
UVM_INFO /home/xe-user106/10x-Engineers/SOC-DV/TCP/axi_dma_verification/verif/environment/coverage_model.sv(326) @ 250000: uvm_test_top.env.s2mm_introut_cov [\$unit_params_pkg_sv_891442008 .\s2mm_introut_coverage::write ] Recieved AXI transaction in Coverage Model
UVM_INFO /home/xe-user106/10x-Engineers/SOC-DV/TCP/axi_dma_verification/verif/axi_coverage_monitor/axi_monitor.sv(95) @ 250000: uvm_test_top.env.axi_mon [axi_monitor] Transaction Collected :
--------------------------------------------
Name            Type             Size  Value
--------------------------------------------
item            axi_transaction  -     @1107
  araddr        integral         32    'h0  
  arlen         integral         8     'h0  
  arsize        integral         3     'h0  
  arburst       integral         2     'h0  
  arprot        integral         3     'h0  
  arcache       integral         4     'h3  
  arvalid       integral         1     'h0  
  arready       integral         1     'h0  
  rdata         integral         32    'h0  
  rresp         integral         2     'h0  
  rlast         integral         1     'h0  
  rvalid        integral         1     'h0  
  rready        integral         1     'h0  
  awaddr        integral         32    'h0  
  awlen         integral         8     'h0  
  awsize        integral         3     'h0  
  awburst       integral         2     'h0  
  awprot        integral         3     'h0  
  awcache       integral         4     'h3  
  awvalid       integral         1     'h0  
  awready       integral         1     'h0  
  wdata         integral         32    'h0  
  wstrb         integral         4     'h0  
  wlast         integral         1     'h0  
  wvalid        integral         1     'h0  
  wready        integral         1     'h0  
  bvalid        integral         1     'h0  
  bready        integral         1     'h0  
  bresp         integral         2     'h0  
  s2mm_introut  integral         1     'h0  
--------------------------------------------

UVM_INFO /home/xe-user106/10x-Engineers/SOC-DV/TCP/axi_dma_verification/verif/stream_uvc/axis_write_monitor.sv(64) @ 250000: uvm_test_top.env.axis_wr_agt.monitor [] ///////////////////////////////////////////////////////////////////////
UVM_INFO /home/xe-user106/10x-Engineers/SOC-DV/TCP/axi_dma_verification/verif/stream_uvc/axis_write_monitor.sv(65) @ 250000: uvm_test_top.env.axis_wr_agt.monitor [] //                      S2MM WRITE Monitor                            //
UVM_INFO /home/xe-user106/10x-Engineers/SOC-DV/TCP/axi_dma_verification/verif/stream_uvc/axis_write_monitor.sv(66) @ 250000: uvm_test_top.env.axis_wr_agt.monitor [] ///////////////////////////////////////////////////////////////////////
UVM_INFO /home/xe-user106/10x-Engineers/SOC-DV/TCP/axi_dma_verification/verif/stream_uvc/axis_write_monitor.sv(67) @ 250000: uvm_test_top.env.axis_wr_agt.monitor [axis_write_monitor] Transaction Collected from AXI-Stream Write Slave :
----------------------------------------
Name       Type              Size  Value
----------------------------------------
item       axis_transaction  -     @1403
  tdata    integral          32    'h0  
  tkeep    integral          4     'h0  
  tvalid   integral          1     'h0  
  tready   integral          1     'h0  
  tlast    integral          1     'h0  
  introut  integral          1     'h0  
----------------------------------------

UVM_INFO /home/xe-user106/10x-Engineers/SOC-DV/TCP/axi_dma_verification/verif/environment/coverage_model.sv(268) @ 250000: uvm_test_top.env.axis_write_cov [\$unit_params_pkg_sv_891442008 .\axis_write_coverage::write ] Recieved AXIS READ transaction in Coverage Model
UVM_INFO /home/xe-user106/10x-Engineers/SOC-DV/TCP/axi_dma_verification/verif/stream_uvc/axis_write_monitor.sv(64) @ 270000: uvm_test_top.env.axis_wr_agt.monitor [] ///////////////////////////////////////////////////////////////////////
UVM_INFO /home/xe-user106/10x-Engineers/SOC-DV/TCP/axi_dma_verification/verif/stream_uvc/axis_write_monitor.sv(65) @ 270000: uvm_test_top.env.axis_wr_agt.monitor [] //                      S2MM WRITE Monitor                            //
UVM_INFO /home/xe-user106/10x-Engineers/SOC-DV/TCP/axi_dma_verification/verif/stream_uvc/axis_write_monitor.sv(66) @ 270000: uvm_test_top.env.axis_wr_agt.monitor [] ///////////////////////////////////////////////////////////////////////
UVM_INFO /home/xe-user106/10x-Engineers/SOC-DV/TCP/axi_dma_verification/verif/stream_uvc/axis_write_monitor.sv(67) @ 270000: uvm_test_top.env.axis_wr_agt.monitor [axis_write_monitor] Transaction Collected from AXI-Stream Write Slave :
----------------------------------------
Name       Type              Size  Value
----------------------------------------
item       axis_transaction  -     @1433
  tdata    integral          32    'h0  
  tkeep    integral          4     'h0  
  tvalid   integral          1     'h0  
  tready   integral          1     'h0  
  tlast    integral          1     'h0  
  introut  integral          1     'h0  
----------------------------------------

UVM_INFO /home/xe-user106/10x-Engineers/SOC-DV/TCP/axi_dma_verification/verif/environment/coverage_model.sv(268) @ 270000: uvm_test_top.env.axis_write_cov [\$unit_params_pkg_sv_891442008 .\axis_write_coverage::write ] Recieved AXIS READ transaction in Coverage Model
UVM_INFO /home/xe-user106/10x-Engineers/SOC-DV/TCP/axi_dma_verification/verif/environment/coverage_model.sv(326) @ 270000: uvm_test_top.env.s2mm_introut_cov [\$unit_params_pkg_sv_891442008 .\s2mm_introut_coverage::write ] Recieved AXI transaction in Coverage Model
UVM_INFO /home/xe-user106/10x-Engineers/SOC-DV/TCP/axi_dma_verification/verif/axi_coverage_monitor/axi_monitor.sv(95) @ 270000: uvm_test_top.env.axi_mon [axi_monitor] Transaction Collected :
--------------------------------------------
Name            Type             Size  Value
--------------------------------------------
item            axi_transaction  -     @1107
  araddr        integral         32    'h0  
  arlen         integral         8     'h0  
  arsize        integral         3     'h0  
  arburst       integral         2     'h0  
  arprot        integral         3     'h0  
  arcache       integral         4     'h3  
  arvalid       integral         1     'h0  
  arready       integral         1     'h0  
  rdata         integral         32    'h0  
  rresp         integral         2     'h0  
  rlast         integral         1     'h0  
  rvalid        integral         1     'h0  
  rready        integral         1     'h0  
  awaddr        integral         32    'h0  
  awlen         integral         8     'h0  
  awsize        integral         3     'h0  
  awburst       integral         2     'h0  
  awprot        integral         3     'h0  
  awcache       integral         4     'h3  
  awvalid       integral         1     'h0  
  awready       integral         1     'h0  
  wdata         integral         32    'h0  
  wstrb         integral         4     'h0  
  wlast         integral         1     'h0  
  wvalid        integral         1     'h0  
  wready        integral         1     'h0  
  bvalid        integral         1     'h0  
  bready        integral         1     'h0  
  bresp         integral         2     'h0  
  s2mm_introut  integral         1     'h0  
--------------------------------------------

UVM_INFO /home/xe-user106/10x-Engineers/SOC-DV/TCP/axi_dma_verification/verif/register_uvc/axi_lite_monitor.sv(79) @ 270000: uvm_test_top.env.axi_lite_agt.monitor [axi_lite_monitor] Transaction Collected :
--------------------------------------------------
Name                  Type             Size  Value
--------------------------------------------------
item                  reg_transaction  -     @1113
  s_axi_lite_awvalid  integral         1     'h0  
  s_axi_lite_awready  integral         1     'h0  
  s_axi_lite_awaddr   integral         10    'h0  
  s_axi_lite_wvalid   integral         1     'h0  
  s_axi_lite_wready   integral         1     'h0  
  s_axi_lite_wdata    integral         32    'h0  
  s_axi_lite_bresp    integral         2     'h0  
  s_axi_lite_bvalid   integral         1     'h0  
  s_axi_lite_bready   integral         1     'h0  
  s_axi_lite_arvalid  integral         1     'h0  
  s_axi_lite_arready  integral         1     'h0  
  s_axi_lite_araddr   integral         10    'h0  
  s_axi_lite_rvalid   integral         1     'h0  
  s_axi_lite_rready   integral         1     'h0  
  s_axi_lite_rdata    integral         32    'h0  
  s_axi_lite_rresp    integral         2     'h0  
--------------------------------------------------

UVM_INFO /home/xe-user106/10x-Engineers/SOC-DV/TCP/axi_dma_verification/verif/environment/coverage_model.sv(31) @ 270000: uvm_test_top.env.axi_lite_cov [\$unit_params_pkg_sv_891442008 .\axi_lite_coverage::write ] Recieved AXI Lite transaction in Coverage Model
UVM_INFO /home/xe-user106/10x-Engineers/SOC-DV/TCP/axi_dma_verification/verif/register_uvc/axi_lite_monitor.sv(79) @ 290000: uvm_test_top.env.axi_lite_agt.monitor [axi_lite_monitor] Transaction Collected :
--------------------------------------------------
Name                  Type             Size  Value
--------------------------------------------------
item                  reg_transaction  -     @1113
  s_axi_lite_awvalid  integral         1     'h0  
  s_axi_lite_awready  integral         1     'h0  
  s_axi_lite_awaddr   integral         10    'h0  
  s_axi_lite_wvalid   integral         1     'h0  
  s_axi_lite_wready   integral         1     'h0  
  s_axi_lite_wdata    integral         32    'h0  
  s_axi_lite_bresp    integral         2     'h0  
  s_axi_lite_bvalid   integral         1     'h0  
  s_axi_lite_bready   integral         1     'h0  
  s_axi_lite_arvalid  integral         1     'h0  
  s_axi_lite_arready  integral         1     'h0  
  s_axi_lite_araddr   integral         10    'h0  
  s_axi_lite_rvalid   integral         1     'h0  
  s_axi_lite_rready   integral         1     'h0  
  s_axi_lite_rdata    integral         32    'h0  
  s_axi_lite_rresp    integral         2     'h0  
--------------------------------------------------

UVM_INFO /home/xe-user106/10x-Engineers/SOC-DV/TCP/axi_dma_verification/verif/environment/coverage_model.sv(31) @ 290000: uvm_test_top.env.axi_lite_cov [\$unit_params_pkg_sv_891442008 .\axi_lite_coverage::write ] Recieved AXI Lite transaction in Coverage Model
UVM_INFO /home/xe-user106/10x-Engineers/SOC-DV/TCP/axi_dma_verification/verif/environment/coverage_model.sv(326) @ 290000: uvm_test_top.env.s2mm_introut_cov [\$unit_params_pkg_sv_891442008 .\s2mm_introut_coverage::write ] Recieved AXI transaction in Coverage Model
UVM_INFO /home/xe-user106/10x-Engineers/SOC-DV/TCP/axi_dma_verification/verif/axi_coverage_monitor/axi_monitor.sv(95) @ 290000: uvm_test_top.env.axi_mon [axi_monitor] Transaction Collected :
--------------------------------------------
Name            Type             Size  Value
--------------------------------------------
item            axi_transaction  -     @1107
  araddr        integral         32    'h0  
  arlen         integral         8     'h0  
  arsize        integral         3     'h0  
  arburst       integral         2     'h0  
  arprot        integral         3     'h0  
  arcache       integral         4     'h3  
  arvalid       integral         1     'h0  
  arready       integral         1     'h0  
  rdata         integral         32    'h0  
  rresp         integral         2     'h0  
  rlast         integral         1     'h0  
  rvalid        integral         1     'h0  
  rready        integral         1     'h0  
  awaddr        integral         32    'h0  
  awlen         integral         8     'h0  
  awsize        integral         3     'h0  
  awburst       integral         2     'h0  
  awprot        integral         3     'h0  
  awcache       integral         4     'h3  
  awvalid       integral         1     'h0  
  awready       integral         1     'h0  
  wdata         integral         32    'h0  
  wstrb         integral         4     'h0  
  wlast         integral         1     'h0  
  wvalid        integral         1     'h0  
  wready        integral         1     'h0  
  bvalid        integral         1     'h0  
  bready        integral         1     'h0  
  bresp         integral         2     'h0  
  s2mm_introut  integral         1     'h0  
--------------------------------------------

UVM_INFO /home/xe-user106/10x-Engineers/SOC-DV/TCP/axi_dma_verification/verif/stream_uvc/axis_write_monitor.sv(64) @ 290000: uvm_test_top.env.axis_wr_agt.monitor [] ///////////////////////////////////////////////////////////////////////
UVM_INFO /home/xe-user106/10x-Engineers/SOC-DV/TCP/axi_dma_verification/verif/stream_uvc/axis_write_monitor.sv(65) @ 290000: uvm_test_top.env.axis_wr_agt.monitor [] //                      S2MM WRITE Monitor                            //
UVM_INFO /home/xe-user106/10x-Engineers/SOC-DV/TCP/axi_dma_verification/verif/stream_uvc/axis_write_monitor.sv(66) @ 290000: uvm_test_top.env.axis_wr_agt.monitor [] ///////////////////////////////////////////////////////////////////////
UVM_INFO /home/xe-user106/10x-Engineers/SOC-DV/TCP/axi_dma_verification/verif/stream_uvc/axis_write_monitor.sv(67) @ 290000: uvm_test_top.env.axis_wr_agt.monitor [axis_write_monitor] Transaction Collected from AXI-Stream Write Slave :
----------------------------------------
Name       Type              Size  Value
----------------------------------------
item       axis_transaction  -     @1447
  tdata    integral          32    'h0  
  tkeep    integral          4     'h0  
  tvalid   integral          1     'h0  
  tready   integral          1     'h0  
  tlast    integral          1     'h0  
  introut  integral          1     'h0  
----------------------------------------

UVM_INFO /home/xe-user106/10x-Engineers/SOC-DV/TCP/axi_dma_verification/verif/environment/coverage_model.sv(268) @ 290000: uvm_test_top.env.axis_write_cov [\$unit_params_pkg_sv_891442008 .\axis_write_coverage::write ] Recieved AXIS READ transaction in Coverage Model
UVM_INFO /home/xe-user106/10x-Engineers/SOC-DV/TCP/axi_dma_verification/verif/stream_uvc/axis_write_monitor.sv(64) @ 310000: uvm_test_top.env.axis_wr_agt.monitor [] ///////////////////////////////////////////////////////////////////////
UVM_INFO /home/xe-user106/10x-Engineers/SOC-DV/TCP/axi_dma_verification/verif/stream_uvc/axis_write_monitor.sv(65) @ 310000: uvm_test_top.env.axis_wr_agt.monitor [] //                      S2MM WRITE Monitor                            //
UVM_INFO /home/xe-user106/10x-Engineers/SOC-DV/TCP/axi_dma_verification/verif/stream_uvc/axis_write_monitor.sv(66) @ 310000: uvm_test_top.env.axis_wr_agt.monitor [] ///////////////////////////////////////////////////////////////////////
UVM_INFO /home/xe-user106/10x-Engineers/SOC-DV/TCP/axi_dma_verification/verif/stream_uvc/axis_write_monitor.sv(67) @ 310000: uvm_test_top.env.axis_wr_agt.monitor [axis_write_monitor] Transaction Collected from AXI-Stream Write Slave :
----------------------------------------
Name       Type              Size  Value
----------------------------------------
item       axis_transaction  -     @1477
  tdata    integral          32    'h0  
  tkeep    integral          4     'h0  
  tvalid   integral          1     'h0  
  tready   integral          1     'h0  
  tlast    integral          1     'h0  
  introut  integral          1     'h0  
----------------------------------------

UVM_INFO /home/xe-user106/10x-Engineers/SOC-DV/TCP/axi_dma_verification/verif/environment/coverage_model.sv(268) @ 310000: uvm_test_top.env.axis_write_cov [\$unit_params_pkg_sv_891442008 .\axis_write_coverage::write ] Recieved AXIS READ transaction in Coverage Model
UVM_INFO /home/xe-user106/10x-Engineers/SOC-DV/TCP/axi_dma_verification/verif/environment/coverage_model.sv(326) @ 310000: uvm_test_top.env.s2mm_introut_cov [\$unit_params_pkg_sv_891442008 .\s2mm_introut_coverage::write ] Recieved AXI transaction in Coverage Model
UVM_INFO /home/xe-user106/10x-Engineers/SOC-DV/TCP/axi_dma_verification/verif/axi_coverage_monitor/axi_monitor.sv(95) @ 310000: uvm_test_top.env.axi_mon [axi_monitor] Transaction Collected :
--------------------------------------------
Name            Type             Size  Value
--------------------------------------------
item            axi_transaction  -     @1107
  araddr        integral         32    'h0  
  arlen         integral         8     'h0  
  arsize        integral         3     'h0  
  arburst       integral         2     'h0  
  arprot        integral         3     'h0  
  arcache       integral         4     'h3  
  arvalid       integral         1     'h0  
  arready       integral         1     'h0  
  rdata         integral         32    'h0  
  rresp         integral         2     'h0  
  rlast         integral         1     'h0  
  rvalid        integral         1     'h0  
  rready        integral         1     'h0  
  awaddr        integral         32    'h0  
  awlen         integral         8     'h0  
  awsize        integral         3     'h0  
  awburst       integral         2     'h0  
  awprot        integral         3     'h0  
  awcache       integral         4     'h3  
  awvalid       integral         1     'h0  
  awready       integral         1     'h0  
  wdata         integral         32    'h0  
  wstrb         integral         4     'h0  
  wlast         integral         1     'h0  
  wvalid        integral         1     'h0  
  wready        integral         1     'h0  
  bvalid        integral         1     'h0  
  bready        integral         1     'h0  
  bresp         integral         2     'h0  
  s2mm_introut  integral         1     'h0  
--------------------------------------------

UVM_INFO /home/xe-user106/10x-Engineers/SOC-DV/TCP/axi_dma_verification/verif/register_uvc/axi_lite_monitor.sv(79) @ 310000: uvm_test_top.env.axi_lite_agt.monitor [axi_lite_monitor] Transaction Collected :
--------------------------------------------------
Name                  Type             Size  Value
--------------------------------------------------
item                  reg_transaction  -     @1113
  s_axi_lite_awvalid  integral         1     'h0  
  s_axi_lite_awready  integral         1     'h0  
  s_axi_lite_awaddr   integral         10    'h0  
  s_axi_lite_wvalid   integral         1     'h0  
  s_axi_lite_wready   integral         1     'h0  
  s_axi_lite_wdata    integral         32    'h0  
  s_axi_lite_bresp    integral         2     'h0  
  s_axi_lite_bvalid   integral         1     'h0  
  s_axi_lite_bready   integral         1     'h0  
  s_axi_lite_arvalid  integral         1     'h0  
  s_axi_lite_arready  integral         1     'h0  
  s_axi_lite_araddr   integral         10    'h0  
  s_axi_lite_rvalid   integral         1     'h0  
  s_axi_lite_rready   integral         1     'h0  
  s_axi_lite_rdata    integral         32    'h0  
  s_axi_lite_rresp    integral         2     'h0  
--------------------------------------------------

UVM_INFO /home/xe-user106/10x-Engineers/SOC-DV/TCP/axi_dma_verification/verif/environment/coverage_model.sv(31) @ 310000: uvm_test_top.env.axi_lite_cov [\$unit_params_pkg_sv_891442008 .\axi_lite_coverage::write ] Recieved AXI Lite transaction in Coverage Model
UVM_INFO /home/xe-user106/vivado/Vivado/2022.1/data/system_verilog/uvm_1.2/xlnx_uvm_package.sv(24244) @ 310000: uvm_test_top.env.axi_lite_agt.sequencer [PHASESEQ] No default sequence to kill for phase 'reset'
UVM_INFO /home/xe-user106/vivado/Vivado/2022.1/data/system_verilog/uvm_1.2/xlnx_uvm_package.sv(24244) @ 310000: uvm_test_top.env.axis_wr_agt.sequencer [PHASESEQ] No default sequence to kill for phase 'reset'
UVM_INFO /home/xe-user106/vivado/Vivado/2022.1/data/system_verilog/uvm_1.2/xlnx_uvm_package.sv(24209) @ 310000: uvm_test_top.env.axi_lite_agt.sequencer [PHASESEQ] No default phase sequence for phase 'post_reset'
UVM_INFO /home/xe-user106/vivado/Vivado/2022.1/data/system_verilog/uvm_1.2/xlnx_uvm_package.sv(24209) @ 310000: uvm_test_top.env.axis_wr_agt.sequencer [PHASESEQ] No default phase sequence for phase 'post_reset'
UVM_INFO /home/xe-user106/vivado/Vivado/2022.1/data/system_verilog/uvm_1.2/xlnx_uvm_package.sv(24244) @ 310000: uvm_test_top.env.axi_lite_agt.sequencer [PHASESEQ] No default sequence to kill for phase 'post_reset'
UVM_INFO /home/xe-user106/vivado/Vivado/2022.1/data/system_verilog/uvm_1.2/xlnx_uvm_package.sv(24244) @ 310000: uvm_test_top.env.axis_wr_agt.sequencer [PHASESEQ] No default sequence to kill for phase 'post_reset'
UVM_INFO /home/xe-user106/vivado/Vivado/2022.1/data/system_verilog/uvm_1.2/xlnx_uvm_package.sv(24209) @ 310000: uvm_test_top.env.axi_lite_agt.sequencer [PHASESEQ] No default phase sequence for phase 'pre_configure'
UVM_INFO /home/xe-user106/vivado/Vivado/2022.1/data/system_verilog/uvm_1.2/xlnx_uvm_package.sv(24209) @ 310000: uvm_test_top.env.axis_wr_agt.sequencer [PHASESEQ] No default phase sequence for phase 'pre_configure'
UVM_INFO /home/xe-user106/vivado/Vivado/2022.1/data/system_verilog/uvm_1.2/xlnx_uvm_package.sv(24244) @ 310000: uvm_test_top.env.axi_lite_agt.sequencer [PHASESEQ] No default sequence to kill for phase 'pre_configure'
UVM_INFO /home/xe-user106/vivado/Vivado/2022.1/data/system_verilog/uvm_1.2/xlnx_uvm_package.sv(24244) @ 310000: uvm_test_top.env.axis_wr_agt.sequencer [PHASESEQ] No default sequence to kill for phase 'pre_configure'
UVM_INFO /home/xe-user106/vivado/Vivado/2022.1/data/system_verilog/uvm_1.2/xlnx_uvm_package.sv(24209) @ 310000: uvm_test_top.env.axi_lite_agt.sequencer [PHASESEQ] No default phase sequence for phase 'configure'
UVM_INFO /home/xe-user106/vivado/Vivado/2022.1/data/system_verilog/uvm_1.2/xlnx_uvm_package.sv(24209) @ 310000: uvm_test_top.env.axis_wr_agt.sequencer [PHASESEQ] No default phase sequence for phase 'configure'
UVM_INFO /home/xe-user106/vivado/Vivado/2022.1/data/system_verilog/uvm_1.2/xlnx_uvm_package.sv(24244) @ 310000: uvm_test_top.env.axi_lite_agt.sequencer [PHASESEQ] No default sequence to kill for phase 'configure'
UVM_INFO /home/xe-user106/vivado/Vivado/2022.1/data/system_verilog/uvm_1.2/xlnx_uvm_package.sv(24244) @ 310000: uvm_test_top.env.axis_wr_agt.sequencer [PHASESEQ] No default sequence to kill for phase 'configure'
