Time resolution is 1 ps
UVM_INFO /home/xe-user106/vivado/Vivado/2022.1/data/system_verilog/uvm_1.2/xlnx_uvm_package.sv(18601) @ 0: reporter [UVM/RELNOTES] 
      (Specify +UVM_NO_RELNOTES to turn off this notice)
  with `UVM_OBJECT_DO_NOT_NEED_CONSTRUCTOR undefined.

  You are using a version of the UVM library that has been compiled
  with `UVM_NO_DEPRECATED undefined.

  You are using a version of the UVM library that has been compiled

  ***********       IMPORTANT RELEASE NOTES         ************
----------------------------------------------------------------
(C) 2013-2014 NVIDIA Corporation
(C) 2011-2013 Cypress Semiconductor Corp.
(C) 2006-2014 Synopsys, Inc.
(C) 2007-2014 Cadence Design Systems, Inc.
(C) 2007-2014 Mentor Graphics Corporation


----------------------------------------------------------------

UVM_INFO @ 0: reporter [RNTST] Running test base_test...
UVM_INFO /home/xe-user106/vivado/Vivado/2022.1/data/system_verilog/uvm_1.2/xlnx_uvm_package.sv(18752) @ 0: reporter [UVMTOP] UVM testbench topology:
--------------------------------------------------------------
Name                       Type                    Size  Value
--------------------------------------------------------------
uvm_test_top               base_test               -     @336 
  env                      environment             -     @358 
    axi_lite_agt           axi_lite_agent          -     @397 
      driver               axi_lite_driver         -     @425 
        rsp_port           uvm_analysis_port       -     @444 
        seq_item_port      uvm_seq_item_pull_port  -     @434 
      monitor              axi_lite_monitor        -     @454 
      sequencer            axi_lite_sequencer      -     @463 
        rsp_export         uvm_analysis_export     -     @472 
        seq_item_export    uvm_seq_item_pull_imp   -     @590 
        arbitration_queue  array                   0     -    
        lock_queue         array                   0     -    
        num_last_reqs      integral                32    'd1  
        num_last_rsps      integral                32    'd1  
    axis_r_agt             axis_read_agent         -     @406 
      driver               axis_read_driver        -     @608 
        rsp_port           uvm_analysis_port       -     @627 
        seq_item_port      uvm_seq_item_pull_port  -     @617 
      monitor              axis_read_monitor       -     @637 
      sequencer            uvm_sequencer           -     @646 
        rsp_export         uvm_analysis_export     -     @655 
        seq_item_export    uvm_seq_item_pull_imp   -     @773 
        arbitration_queue  array                   0     -    
        lock_queue         array                   0     -    
        num_last_reqs      integral                32    'd1  
        num_last_rsps      integral                32    'd1  
    axis_wr_agt            axis_write_agent        -     @415 
      driver               axis_write_driver       -     @791 
        rsp_port           uvm_analysis_port       -     @810 
        seq_item_port      uvm_seq_item_pull_port  -     @800 
      monitor              axis_write_monitor      -     @820 
      sequencer            uvm_sequencer           -     @829 
        rsp_export         uvm_analysis_export     -     @838 
        seq_item_export    uvm_seq_item_pull_imp   -     @956 
        arbitration_queue  array                   0     -    
        lock_queue         array                   0     -    
        num_last_reqs      integral                32    'd1  
        num_last_rsps      integral                32    'd1  
--------------------------------------------------------------

UVM_INFO /home/xe-user106/vivado/Vivado/2022.1/data/system_verilog/uvm_1.2/xlnx_uvm_package.sv(20867) @ 0: reporter [UVM/COMP/NAMECHECK] This implementation of the component name checks requires DPI to be enabled
UVM_INFO /home/xe-user106/10x-Engineers/SOC-DV/TCP/axi_dma_verification/verif/top/../stream_uvc/axis_write_monitor.sv(44) @ 0: uvm_test_top.env.axis_wr_agt.monitor [uvm_test_top.env.axis_wr_agt.monitor] AXIS Write Monitor Started
UVM_INFO /home/xe-user106/10x-Engineers/SOC-DV/TCP/axi_dma_verification/verif/top/../stream_uvc/axis_read_monitor.sv(44) @ 0: uvm_test_top.env.axis_r_agt.monitor [uvm_test_top.env.axis_r_agt.monitor] AXIS Read Monitor Started
UVM_INFO /home/xe-user106/10x-Engineers/SOC-DV/TCP/axi_dma_verification/verif/top/../register_uvc/axi_lite_monitor.sv(46) @ 0: uvm_test_top.env.axi_lite_agt.monitor [uvm_test_top.env.axi_lite_agt.monitor] Monitor Started
UVM_INFO /home/xe-user106/10x-Engineers/SOC-DV/TCP/axi_dma_verification/verif/top/../register_uvc/axi_lite_driver.sv(43) @ 0: uvm_test_top.env.axi_lite_agt.driver [uvm_test_top.env.axi_lite_agt.driver] Driver Started
Info: [XPM_MEMORY 20-1] MEMORY_PRIMITIVE (0) instructs Vivado Synthesis to choose the memory primitive type. Depending on their values, other XPM_MEMORY parameters may preclude the choice of certain memory primitive types. Review XPM_MEMORY documentation and parameter values to understand any limitations, or set MEMORY_PRIMITIVE to a different value. axi_dma_10xe_tb_top.DUT.U0.I_PRMRY_DATAMOVER.gen_s2mm_full.I_S2MM_FULL_WRAPPER.gen_enable_indet_btt_sf.I_INDET_BTT.I_XD_FIFO.non_blk_mem.I_SYNC_FIFOGEN_FIFO.xpm_fifo_instance.xpm_fifo_sync_inst.xpm_fifo_base_inst.\gen_sdpram.xpm_memory_base_inst .config_drc
Time: 1 ps  Iteration: 0  Process: /axi_dma_10xe_tb_top/DUT/U0/I_PRMRY_DATAMOVER/gen_s2mm_full/I_S2MM_FULL_WRAPPER/gen_enable_indet_btt_sf/I_INDET_BTT/I_XD_FIFO/non_blk_mem/I_SYNC_FIFOGEN_FIFO/xpm_fifo_instance/xpm_fifo_sync_inst/xpm_fifo_base_inst/gen_sdpram.xpm_memory_base_inst/Initial299_478  Scope: axi_dma_10xe_tb_top.DUT.U0.I_PRMRY_DATAMOVER.gen_s2mm_full.I_S2MM_FULL_WRAPPER.gen_enable_indet_btt_sf.I_INDET_BTT.I_XD_FIFO.non_blk_mem.I_SYNC_FIFOGEN_FIFO.xpm_fifo_instance.xpm_fifo_sync_inst.xpm_fifo_base_inst.\gen_sdpram.xpm_memory_base_inst .config_drc  File: /home/xe-user106/vivado/Vivado/2022.1/data/ip/xpm/xpm_memory/hdl/xpm_memory.sv Line: 493
UVM_INFO /home/xe-user106/10x-Engineers/SOC-DV/TCP/axi_dma_verification/verif/top/../stream_uvc/axis_write_monitor.sv(63) @ 30000: uvm_test_top.env.axis_wr_agt.monitor [axis_write_monitor] Transaction Collected from AXI-Stream Write Slave :
---------------------------------------
Name      Type              Size  Value
---------------------------------------
item      axis_transaction  -     @990 
  tdata   integral          32    'h0  
  tkeep   integral          4     'h0  
  tvalid  integral          1     'h0  
  tready  integral          1     'h0  
  tlast   integral          1     'h0  
---------------------------------------

UVM_INFO /home/xe-user106/10x-Engineers/SOC-DV/TCP/axi_dma_verification/verif/top/../stream_uvc/axis_read_monitor.sv(63) @ 30000: uvm_test_top.env.axis_r_agt.monitor [axis_read_monitor] Transaction Collected from AXI-Stream Read Master :
---------------------------------------
Name      Type              Size  Value
---------------------------------------
item      axis_transaction  -     @996 
  tdata   integral          32    'h0  
  tkeep   integral          4     'h0  
  tvalid  integral          1     'h0  
  tready  integral          1     'h0  
  tlast   integral          1     'h0  
---------------------------------------

UVM_INFO /home/xe-user106/10x-Engineers/SOC-DV/TCP/axi_dma_verification/verif/top/../register_uvc/axi_lite_monitor.sv(75) @ 50000: uvm_test_top.env.axi_lite_agt.monitor [axi_lite_monitor] Transaction Collected :
--------------------------------------------------
Name                  Type             Size  Value
--------------------------------------------------
item                  reg_transaction  -     @1002
  s_axi_lite_awvalid  integral         1     'h0  
  s_axi_lite_awready  integral         1     'h0  
  s_axi_lite_awaddr   integral         10    'h0  
  s_axi_lite_wvalid   integral         1     'h0  
  s_axi_lite_wready   integral         1     'h0  
  s_axi_lite_wdata    integral         32    'h0  
  s_axi_lite_bresp    integral         2     'h0  
  s_axi_lite_bvalid   integral         1     'h0  
  s_axi_lite_bready   integral         1     'h0  
  s_axi_lite_arvalid  integral         1     'h0  
  s_axi_lite_arready  integral         1     'h0  
  s_axi_lite_araddr   integral         10    'h0  
  s_axi_lite_rvalid   integral         1     'h0  
  s_axi_lite_rready   integral         1     'h0  
  s_axi_lite_rdata    integral         32    'h0  
  s_axi_lite_rresp    integral         2     'h0  
--------------------------------------------------

UVM_INFO /home/xe-user106/10x-Engineers/SOC-DV/TCP/axi_dma_verification/verif/top/../stream_uvc/axis_write_monitor.sv(63) @ 70000: uvm_test_top.env.axis_wr_agt.monitor [axis_write_monitor] Transaction Collected from AXI-Stream Write Slave :
---------------------------------------
Name      Type              Size  Value
---------------------------------------
item      axis_transaction  -     @990 
  tdata   integral          32    'h0  
  tkeep   integral          4     'h0  
  tvalid  integral          1     'h0  
  tready  integral          1     'h0  
  tlast   integral          1     'h0  
---------------------------------------

UVM_INFO /home/xe-user106/10x-Engineers/SOC-DV/TCP/axi_dma_verification/verif/top/../stream_uvc/axis_read_monitor.sv(63) @ 70000: uvm_test_top.env.axis_r_agt.monitor [axis_read_monitor] Transaction Collected from AXI-Stream Read Master :
---------------------------------------
Name      Type              Size  Value
---------------------------------------
item      axis_transaction  -     @996 
  tdata   integral          32    'h0  
  tkeep   integral          4     'h0  
  tvalid  integral          1     'h0  
  tready  integral          1     'h0  
  tlast   integral          1     'h0  
---------------------------------------

UVM_INFO /home/xe-user106/10x-Engineers/SOC-DV/TCP/axi_dma_verification/verif/top/../stream_uvc/axis_write_monitor.sv(63) @ 110000: uvm_test_top.env.axis_wr_agt.monitor [axis_write_monitor] Transaction Collected from AXI-Stream Write Slave :
---------------------------------------
Name      Type              Size  Value
---------------------------------------
item      axis_transaction  -     @990 
  tdata   integral          32    'h0  
  tkeep   integral          4     'h0  
  tvalid  integral          1     'h0  
  tready  integral          1     'h0  
  tlast   integral          1     'h0  
---------------------------------------

UVM_INFO /home/xe-user106/10x-Engineers/SOC-DV/TCP/axi_dma_verification/verif/top/../stream_uvc/axis_read_monitor.sv(63) @ 110000: uvm_test_top.env.axis_r_agt.monitor [axis_read_monitor] Transaction Collected from AXI-Stream Read Master :
---------------------------------------
Name      Type              Size  Value
---------------------------------------
item      axis_transaction  -     @996 
  tdata   integral          32    'h0  
  tkeep   integral          4     'h0  
  tvalid  integral          1     'h0  
  tready  integral          1     'h0  
  tlast   integral          1     'h0  
---------------------------------------

UVM_INFO /home/xe-user106/10x-Engineers/SOC-DV/TCP/axi_dma_verification/verif/top/../register_uvc/axi_lite_monitor.sv(75) @ 110000: uvm_test_top.env.axi_lite_agt.monitor [axi_lite_monitor] Transaction Collected :
--------------------------------------------------
Name                  Type             Size  Value
--------------------------------------------------
item                  reg_transaction  -     @1002
  s_axi_lite_awvalid  integral         1     'h0  
  s_axi_lite_awready  integral         1     'h0  
  s_axi_lite_awaddr   integral         10    'h0  
  s_axi_lite_wvalid   integral         1     'h0  
  s_axi_lite_wready   integral         1     'h0  
  s_axi_lite_wdata    integral         32    'h0  
  s_axi_lite_bresp    integral         2     'h0  
  s_axi_lite_bvalid   integral         1     'h0  
  s_axi_lite_bready   integral         1     'h0  
  s_axi_lite_arvalid  integral         1     'h0  
  s_axi_lite_arready  integral         1     'h0  
  s_axi_lite_araddr   integral         10    'h0  
  s_axi_lite_rvalid   integral         1     'h0  
  s_axi_lite_rready   integral         1     'h0  
  s_axi_lite_rdata    integral         32    'h0  
  s_axi_lite_rresp    integral         2     'h0  
--------------------------------------------------

UVM_INFO /home/xe-user106/10x-Engineers/SOC-DV/TCP/axi_dma_verification/verif/top/../stream_uvc/axis_write_monitor.sv(63) @ 150000: uvm_test_top.env.axis_wr_agt.monitor [axis_write_monitor] Transaction Collected from AXI-Stream Write Slave :
---------------------------------------
Name      Type              Size  Value
---------------------------------------
item      axis_transaction  -     @990 
  tdata   integral          32    'h0  
  tkeep   integral          4     'h0  
  tvalid  integral          1     'h0  
  tready  integral          1     'h0  
  tlast   integral          1     'h0  
---------------------------------------

UVM_INFO /home/xe-user106/10x-Engineers/SOC-DV/TCP/axi_dma_verification/verif/top/../stream_uvc/axis_read_monitor.sv(63) @ 150000: uvm_test_top.env.axis_r_agt.monitor [axis_read_monitor] Transaction Collected from AXI-Stream Read Master :
---------------------------------------
Name      Type              Size  Value
---------------------------------------
item      axis_transaction  -     @996 
  tdata   integral          32    'h0  
  tkeep   integral          4     'h0  
  tvalid  integral          1     'h0  
  tready  integral          1     'h0  
  tlast   integral          1     'h0  
---------------------------------------

UVM_INFO /home/xe-user106/10x-Engineers/SOC-DV/TCP/axi_dma_verification/verif/top/../register_uvc/axi_lite_monitor.sv(75) @ 170000: uvm_test_top.env.axi_lite_agt.monitor [axi_lite_monitor] Transaction Collected :
--------------------------------------------------
Name                  Type             Size  Value
--------------------------------------------------
item                  reg_transaction  -     @1002
  s_axi_lite_awvalid  integral         1     'h0  
  s_axi_lite_awready  integral         1     'h0  
  s_axi_lite_awaddr   integral         10    'h0  
  s_axi_lite_wvalid   integral         1     'h0  
  s_axi_lite_wready   integral         1     'h0  
  s_axi_lite_wdata    integral         32    'h0  
  s_axi_lite_bresp    integral         2     'h0  
  s_axi_lite_bvalid   integral         1     'h0  
  s_axi_lite_bready   integral         1     'h0  
  s_axi_lite_arvalid  integral         1     'h0  
  s_axi_lite_arready  integral         1     'h0  
  s_axi_lite_araddr   integral         10    'h0  
  s_axi_lite_rvalid   integral         1     'h0  
  s_axi_lite_rready   integral         1     'h0  
  s_axi_lite_rdata    integral         32    'h0  
  s_axi_lite_rresp    integral         2     'h0  
--------------------------------------------------

UVM_INFO /home/xe-user106/10x-Engineers/SOC-DV/TCP/axi_dma_verification/verif/top/../stream_uvc/axis_write_monitor.sv(63) @ 190000: uvm_test_top.env.axis_wr_agt.monitor [axis_write_monitor] Transaction Collected from AXI-Stream Write Slave :
---------------------------------------
Name      Type              Size  Value
---------------------------------------
item      axis_transaction  -     @990 
  tdata   integral          32    'h0  
  tkeep   integral          4     'h0  
  tvalid  integral          1     'h0  
  tready  integral          1     'h0  
  tlast   integral          1     'h0  
---------------------------------------

UVM_INFO /home/xe-user106/10x-Engineers/SOC-DV/TCP/axi_dma_verification/verif/top/../stream_uvc/axis_read_monitor.sv(63) @ 190000: uvm_test_top.env.axis_r_agt.monitor [axis_read_monitor] Transaction Collected from AXI-Stream Read Master :
---------------------------------------
Name      Type              Size  Value
---------------------------------------
item      axis_transaction  -     @996 
  tdata   integral          32    'h0  
  tkeep   integral          4     'h0  
  tvalid  integral          1     'h0  
  tready  integral          1     'h0  
  tlast   integral          1     'h0  
---------------------------------------

UVM_INFO /home/xe-user106/10x-Engineers/SOC-DV/TCP/axi_dma_verification/verif/top/../stream_uvc/axis_write_monitor.sv(63) @ 230000: uvm_test_top.env.axis_wr_agt.monitor [axis_write_monitor] Transaction Collected from AXI-Stream Write Slave :
---------------------------------------
Name      Type              Size  Value
---------------------------------------
item      axis_transaction  -     @990 
  tdata   integral          32    'h0  
  tkeep   integral          4     'h0  
  tvalid  integral          1     'h0  
  tready  integral          1     'h0  
  tlast   integral          1     'h0  
---------------------------------------

UVM_INFO /home/xe-user106/10x-Engineers/SOC-DV/TCP/axi_dma_verification/verif/top/../stream_uvc/axis_read_monitor.sv(63) @ 230000: uvm_test_top.env.axis_r_agt.monitor [axis_read_monitor] Transaction Collected from AXI-Stream Read Master :
---------------------------------------
Name      Type              Size  Value
---------------------------------------
item      axis_transaction  -     @996 
  tdata   integral          32    'h0  
  tkeep   integral          4     'h0  
  tvalid  integral          1     'h0  
  tready  integral          1     'h0  
  tlast   integral          1     'h0  
---------------------------------------

UVM_INFO /home/xe-user106/10x-Engineers/SOC-DV/TCP/axi_dma_verification/verif/top/../register_uvc/axi_lite_monitor.sv(75) @ 230000: uvm_test_top.env.axi_lite_agt.monitor [axi_lite_monitor] Transaction Collected :
--------------------------------------------------
Name                  Type             Size  Value
--------------------------------------------------
item                  reg_transaction  -     @1002
  s_axi_lite_awvalid  integral         1     'h0  
  s_axi_lite_awready  integral         1     'h0  
  s_axi_lite_awaddr   integral         10    'h0  
  s_axi_lite_wvalid   integral         1     'h0  
  s_axi_lite_wready   integral         1     'h0  
  s_axi_lite_wdata    integral         32    'h0  
  s_axi_lite_bresp    integral         2     'h0  
  s_axi_lite_bvalid   integral         1     'h0  
  s_axi_lite_bready   integral         1     'h0  
  s_axi_lite_arvalid  integral         1     'h0  
  s_axi_lite_arready  integral         1     'h0  
  s_axi_lite_araddr   integral         10    'h0  
  s_axi_lite_rvalid   integral         1     'h0  
  s_axi_lite_rready   integral         1     'h0  
  s_axi_lite_rdata    integral         32    'h0  
  s_axi_lite_rresp    integral         2     'h0  
--------------------------------------------------

UVM_INFO /home/xe-user106/10x-Engineers/SOC-DV/TCP/axi_dma_verification/verif/top/../stream_uvc/axis_write_monitor.sv(63) @ 270000: uvm_test_top.env.axis_wr_agt.monitor [axis_write_monitor] Transaction Collected from AXI-Stream Write Slave :
---------------------------------------
Name      Type              Size  Value
---------------------------------------
item      axis_transaction  -     @990 
  tdata   integral          32    'h0  
  tkeep   integral          4     'h0  
  tvalid  integral          1     'h0  
  tready  integral          1     'h0  
  tlast   integral          1     'h0  
---------------------------------------

UVM_INFO /home/xe-user106/10x-Engineers/SOC-DV/TCP/axi_dma_verification/verif/top/../stream_uvc/axis_read_monitor.sv(63) @ 270000: uvm_test_top.env.axis_r_agt.monitor [axis_read_monitor] Transaction Collected from AXI-Stream Read Master :
---------------------------------------
Name      Type              Size  Value
---------------------------------------
item      axis_transaction  -     @996 
  tdata   integral          32    'h0  
  tkeep   integral          4     'h0  
  tvalid  integral          1     'h0  
  tready  integral          1     'h0  
  tlast   integral          1     'h0  
---------------------------------------

UVM_INFO /home/xe-user106/10x-Engineers/SOC-DV/TCP/axi_dma_verification/verif/top/../register_uvc/axi_lite_monitor.sv(75) @ 290000: uvm_test_top.env.axi_lite_agt.monitor [axi_lite_monitor] Transaction Collected :
--------------------------------------------------
Name                  Type             Size  Value
--------------------------------------------------
item                  reg_transaction  -     @1002
  s_axi_lite_awvalid  integral         1     'h0  
  s_axi_lite_awready  integral         1     'h0  
  s_axi_lite_awaddr   integral         10    'h0  
  s_axi_lite_wvalid   integral         1     'h0  
  s_axi_lite_wready   integral         1     'h0  
  s_axi_lite_wdata    integral         32    'h0  
  s_axi_lite_bresp    integral         2     'h0  
  s_axi_lite_bvalid   integral         1     'h0  
  s_axi_lite_bready   integral         1     'h0  
  s_axi_lite_arvalid  integral         1     'h0  
  s_axi_lite_arready  integral         1     'h0  
  s_axi_lite_araddr   integral         10    'h0  
  s_axi_lite_rvalid   integral         1     'h0  
  s_axi_lite_rready   integral         1     'h0  
  s_axi_lite_rdata    integral         32    'h0  
  s_axi_lite_rresp    integral         2     'h0  
--------------------------------------------------

UVM_INFO /home/xe-user106/10x-Engineers/SOC-DV/TCP/axi_dma_verification/verif/top/../stream_uvc/axis_write_monitor.sv(63) @ 310000: uvm_test_top.env.axis_wr_agt.monitor [axis_write_monitor] Transaction Collected from AXI-Stream Write Slave :
---------------------------------------
Name      Type              Size  Value
---------------------------------------
item      axis_transaction  -     @990 
  tdata   integral          32    'h0  
  tkeep   integral          4     'h0  
  tvalid  integral          1     'h0  
  tready  integral          1     'h0  
  tlast   integral          1     'h0  
---------------------------------------

UVM_INFO /home/xe-user106/10x-Engineers/SOC-DV/TCP/axi_dma_verification/verif/top/../stream_uvc/axis_read_monitor.sv(63) @ 310000: uvm_test_top.env.axis_r_agt.monitor [axis_read_monitor] Transaction Collected from AXI-Stream Read Master :
---------------------------------------
Name      Type              Size  Value
---------------------------------------
item      axis_transaction  -     @996 
  tdata   integral          32    'h0  
  tkeep   integral          4     'h0  
  tvalid  integral          1     'h0  
  tready  integral          1     'h0  
  tlast   integral          1     'h0  
---------------------------------------

UVM_INFO /home/xe-user106/10x-Engineers/SOC-DV/TCP/axi_dma_verification/verif/top/../tests/base_test.sv(58) @ 310000: uvm_test_top [base_test] Raised objection
UVM_INFO /home/xe-user106/10x-Engineers/SOC-DV/TCP/axi_dma_verification/verif/top/../tests/base_test.sv(61) @ 310000: uvm_test_top [base_test] Dropped objection
UVM_INFO /home/xe-user106/10x-Engineers/SOC-DV/TCP/axi_dma_verification/verif/top/../tests/base_test.sv(67) @ 310000: uvm_test_top [base_test] Raised objection
UVM_INFO /home/xe-user106/10x-Engineers/SOC-DV/TCP/axi_dma_verification/verif/top/../stream_uvc/axis_write_driver.sv(43) @ 310000: uvm_test_top.env.axis_wr_agt.driver [uvm_test_top.env.axis_wr_agt.driver] Axis Write Driver Started
UVM_INFO /home/xe-user106/10x-Engineers/SOC-DV/TCP/axi_dma_verification/verif/top/../stream_uvc/axis_read_driver.sv(40) @ 310000: uvm_test_top.env.axis_r_agt.driver [uvm_test_top.env.axis_r_agt.driver] Axis READ Driver Started
UVM_INFO /home/xe-user106/10x-Engineers/SOC-DV/TCP/axi_dma_verification/verif/top/../register_uvc/reg_sequence.sv(163) @ 310000: uvm_test_top.env.axi_lite_agt.sequencer@@mm2s_enable [mm2s_enable_sequence] Executing MM2S Enable Sequence
UVM_INFO /home/xe-user106/10x-Engineers/SOC-DV/TCP/axi_dma_verification/verif/top/../stream_uvc/axis_write_monitor.sv(63) @ 350000: uvm_test_top.env.axis_wr_agt.monitor [axis_write_monitor] Transaction Collected from AXI-Stream Write Slave :
---------------------------------------
Name      Type              Size  Value
---------------------------------------
item      axis_transaction  -     @990 
  tdata   integral          32    'h0  
  tkeep   integral          4     'h0  
  tvalid  integral          1     'h0  
  tready  integral          1     'h0  
  tlast   integral          1     'h0  
---------------------------------------

UVM_INFO /home/xe-user106/10x-Engineers/SOC-DV/TCP/axi_dma_verification/verif/top/../stream_uvc/axis_read_monitor.sv(63) @ 350000: uvm_test_top.env.axis_r_agt.monitor [axis_read_monitor] Transaction Collected from AXI-Stream Read Master :
---------------------------------------
Name      Type              Size  Value
---------------------------------------
item      axis_transaction  -     @996 
  tdata   integral          32    'h0  
  tkeep   integral          4     'h0  
  tvalid  integral          1     'h0  
  tready  integral          1     'h0  
  tlast   integral          1     'h0  
---------------------------------------

UVM_INFO /home/xe-user106/10x-Engineers/SOC-DV/TCP/axi_dma_verification/verif/top/../register_uvc/axi_lite_monitor.sv(75) @ 350000: uvm_test_top.env.axi_lite_agt.monitor [axi_lite_monitor] Transaction Collected :
--------------------------------------------------
Name                  Type             Size  Value
--------------------------------------------------
item                  reg_transaction  -     @1002
  s_axi_lite_awvalid  integral         1     'h0  
  s_axi_lite_awready  integral         1     'h0  
  s_axi_lite_awaddr   integral         10    'h0  
  s_axi_lite_wvalid   integral         1     'h0  
  s_axi_lite_wready   integral         1     'h0  
  s_axi_lite_wdata    integral         32    'h0  
  s_axi_lite_bresp    integral         2     'h0  
  s_axi_lite_bvalid   integral         1     'h0  
  s_axi_lite_bready   integral         1     'h0  
  s_axi_lite_arvalid  integral         1     'h0  
  s_axi_lite_arready  integral         1     'h0  
  s_axi_lite_araddr   integral         10    'h0  
  s_axi_lite_rvalid   integral         1     'h0  
  s_axi_lite_rready   integral         1     'h0  
  s_axi_lite_rdata    integral         32    'h0  
  s_axi_lite_rresp    integral         2     'h0  
--------------------------------------------------

UVM_INFO /home/xe-user106/10x-Engineers/SOC-DV/TCP/axi_dma_verification/verif/top/../stream_uvc/axis_write_monitor.sv(63) @ 390000: uvm_test_top.env.axis_wr_agt.monitor [axis_write_monitor] Transaction Collected from AXI-Stream Write Slave :
---------------------------------------
Name      Type              Size  Value
---------------------------------------
item      axis_transaction  -     @990 
  tdata   integral          32    'h0  
  tkeep   integral          4     'h0  
  tvalid  integral          1     'h0  
  tready  integral          1     'h0  
  tlast   integral          1     'h0  
---------------------------------------

UVM_INFO /home/xe-user106/10x-Engineers/SOC-DV/TCP/axi_dma_verification/verif/top/../stream_uvc/axis_read_monitor.sv(63) @ 390000: uvm_test_top.env.axis_r_agt.monitor [axis_read_monitor] Transaction Collected from AXI-Stream Read Master :
---------------------------------------
Name      Type              Size  Value
---------------------------------------
item      axis_transaction  -     @996 
  tdata   integral          32    'h0  
  tkeep   integral          4     'h0  
  tvalid  integral          1     'h0  
  tready  integral          1     'h0  
  tlast   integral          1     'h0  
---------------------------------------

UVM_INFO /home/xe-user106/10x-Engineers/SOC-DV/TCP/axi_dma_verification/verif/top/../register_uvc/axi_lite_monitor.sv(75) @ 410000: uvm_test_top.env.axi_lite_agt.monitor [axi_lite_monitor] Transaction Collected :
--------------------------------------------------
Name                  Type             Size  Value
--------------------------------------------------
item                  reg_transaction  -     @1002
  s_axi_lite_awvalid  integral         1     'h0  
  s_axi_lite_awready  integral         1     'h0  
  s_axi_lite_awaddr   integral         10    'h0  
  s_axi_lite_wvalid   integral         1     'h0  
  s_axi_lite_wready   integral         1     'h0  
  s_axi_lite_wdata    integral         32    'h0  
  s_axi_lite_bresp    integral         2     'h0  
  s_axi_lite_bvalid   integral         1     'h0  
  s_axi_lite_bready   integral         1     'h0  
  s_axi_lite_arvalid  integral         1     'h0  
  s_axi_lite_arready  integral         1     'h0  
  s_axi_lite_araddr   integral         10    'h0  
  s_axi_lite_rvalid   integral         1     'h0  
  s_axi_lite_rready   integral         1     'h0  
  s_axi_lite_rdata    integral         32    'h0  
  s_axi_lite_rresp    integral         2     'h0  
--------------------------------------------------

UVM_INFO /home/xe-user106/10x-Engineers/SOC-DV/TCP/axi_dma_verification/verif/top/../stream_uvc/axis_write_monitor.sv(63) @ 430000: uvm_test_top.env.axis_wr_agt.monitor [axis_write_monitor] Transaction Collected from AXI-Stream Write Slave :
---------------------------------------
Name      Type              Size  Value
---------------------------------------
item      axis_transaction  -     @990 
  tdata   integral          32    'h0  
  tkeep   integral          4     'h0  
  tvalid  integral          1     'h0  
  tready  integral          1     'h0  
  tlast   integral          1     'h0  
---------------------------------------

UVM_INFO /home/xe-user106/10x-Engineers/SOC-DV/TCP/axi_dma_verification/verif/top/../stream_uvc/axis_read_monitor.sv(63) @ 430000: uvm_test_top.env.axis_r_agt.monitor [axis_read_monitor] Transaction Collected from AXI-Stream Read Master :
---------------------------------------
Name      Type              Size  Value
---------------------------------------
item      axis_transaction  -     @996 
  tdata   integral          32    'h0  
  tkeep   integral          4     'h0  
  tvalid  integral          1     'h0  
  tready  integral          1     'h0  
  tlast   integral          1     'h0  
---------------------------------------

UVM_INFO /home/xe-user106/10x-Engineers/SOC-DV/TCP/axi_dma_verification/verif/top/../stream_uvc/axis_write_monitor.sv(63) @ 470000: uvm_test_top.env.axis_wr_agt.monitor [axis_write_monitor] Transaction Collected from AXI-Stream Write Slave :
---------------------------------------
Name      Type              Size  Value
---------------------------------------
item      axis_transaction  -     @990 
  tdata   integral          32    'h0  
  tkeep   integral          4     'h0  
  tvalid  integral          1     'h0  
  tready  integral          1     'h0  
  tlast   integral          1     'h0  
---------------------------------------

UVM_INFO /home/xe-user106/10x-Engineers/SOC-DV/TCP/axi_dma_verification/verif/top/../stream_uvc/axis_read_monitor.sv(63) @ 470000: uvm_test_top.env.axis_r_agt.monitor [axis_read_monitor] Transaction Collected from AXI-Stream Read Master :
---------------------------------------
Name      Type              Size  Value
---------------------------------------
item      axis_transaction  -     @996 
  tdata   integral          32    'h0  
  tkeep   integral          4     'h0  
  tvalid  integral          1     'h0  
  tready  integral          1     'h0  
  tlast   integral          1     'h0  
---------------------------------------

UVM_INFO /home/xe-user106/10x-Engineers/SOC-DV/TCP/axi_dma_verification/verif/top/../register_uvc/axi_lite_monitor.sv(75) @ 470000: uvm_test_top.env.axi_lite_agt.monitor [axi_lite_monitor] Transaction Collected :
--------------------------------------------------
Name                  Type             Size  Value
--------------------------------------------------
item                  reg_transaction  -     @1002
  s_axi_lite_awvalid  integral         1     'h1  
  s_axi_lite_awready  integral         1     'h0  
  s_axi_lite_awaddr   integral         10    'h0  
  s_axi_lite_wvalid   integral         1     'h0  
  s_axi_lite_wready   integral         1     'h0  
  s_axi_lite_wdata    integral         32    'h0  
  s_axi_lite_bresp    integral         2     'h0  
  s_axi_lite_bvalid   integral         1     'h0  
  s_axi_lite_bready   integral         1     'h0  
  s_axi_lite_arvalid  integral         1     'h0  
  s_axi_lite_arready  integral         1     'h0  
  s_axi_lite_araddr   integral         10    'h0  
  s_axi_lite_rvalid   integral         1     'h0  
  s_axi_lite_rready   integral         1     'h0  
  s_axi_lite_rdata    integral         32    'h0  
  s_axi_lite_rresp    integral         2     'h0  
--------------------------------------------------

UVM_INFO /home/xe-user106/10x-Engineers/SOC-DV/TCP/axi_dma_verification/verif/top/../stream_uvc/axis_write_monitor.sv(63) @ 510000: uvm_test_top.env.axis_wr_agt.monitor [axis_write_monitor] Transaction Collected from AXI-Stream Write Slave :
---------------------------------------
Name      Type              Size  Value
---------------------------------------
item      axis_transaction  -     @990 
  tdata   integral          32    'h0  
  tkeep   integral          4     'h0  
  tvalid  integral          1     'h0  
  tready  integral          1     'h1  
  tlast   integral          1     'h0  
---------------------------------------

UVM_INFO /home/xe-user106/10x-Engineers/SOC-DV/TCP/axi_dma_verification/verif/top/../stream_uvc/axis_read_monitor.sv(63) @ 510000: uvm_test_top.env.axis_r_agt.monitor [axis_read_monitor] Transaction Collected from AXI-Stream Read Master :
---------------------------------------
Name      Type              Size  Value
---------------------------------------
item      axis_transaction  -     @996 
  tdata   integral          32    'h0  
  tkeep   integral          4     'h0  
  tvalid  integral          1     'h0  
  tready  integral          1     'h0  
  tlast   integral          1     'h0  
---------------------------------------

UVM_INFO /home/xe-user106/10x-Engineers/SOC-DV/TCP/axi_dma_verification/verif/top/../register_uvc/axi_lite_driver.sv(43) @ 530000: uvm_test_top.env.axi_lite_agt.driver [uvm_test_top.env.axi_lite_agt.driver] Driver Started
UVM_INFO /home/xe-user106/10x-Engineers/SOC-DV/TCP/axi_dma_verification/verif/top/../register_uvc/axi_lite_monitor.sv(75) @ 530000: uvm_test_top.env.axi_lite_agt.monitor [axi_lite_monitor] Transaction Collected :
----------------------------------------------------
Name                  Type             Size  Value  
----------------------------------------------------
item                  reg_transaction  -     @1002  
  s_axi_lite_awvalid  integral         1     'h1    
  s_axi_lite_awready  integral         1     'h0    
  s_axi_lite_awaddr   integral         10    'h0    
  s_axi_lite_wvalid   integral         1     'h1    
  s_axi_lite_wready   integral         1     'h0    
  s_axi_lite_wdata    integral         32    'h11003
  s_axi_lite_bresp    integral         2     'h0    
  s_axi_lite_bvalid   integral         1     'h0    
  s_axi_lite_bready   integral         1     'h0    
  s_axi_lite_arvalid  integral         1     'h0    
  s_axi_lite_arready  integral         1     'h0    
  s_axi_lite_araddr   integral         10    'h0    
  s_axi_lite_rvalid   integral         1     'h0    
  s_axi_lite_rready   integral         1     'h0    
  s_axi_lite_rdata    integral         32    'h0    
  s_axi_lite_rresp    integral         2     'h0    
----------------------------------------------------

UVM_INFO /home/xe-user106/10x-Engineers/SOC-DV/TCP/axi_dma_verification/verif/top/../stream_uvc/axis_write_monitor.sv(63) @ 550000: uvm_test_top.env.axis_wr_agt.monitor [axis_write_monitor] Transaction Collected from AXI-Stream Write Slave :
---------------------------------------
Name      Type              Size  Value
---------------------------------------
item      axis_transaction  -     @990 
  tdata   integral          32    'h0  
  tkeep   integral          4     'h0  
  tvalid  integral          1     'h0  
  tready  integral          1     'h1  
  tlast   integral          1     'h0  
---------------------------------------

UVM_INFO /home/xe-user106/10x-Engineers/SOC-DV/TCP/axi_dma_verification/verif/top/../stream_uvc/axis_read_monitor.sv(63) @ 550000: uvm_test_top.env.axis_r_agt.monitor [axis_read_monitor] Transaction Collected from AXI-Stream Read Master :
---------------------------------------
Name      Type              Size  Value
---------------------------------------
item      axis_transaction  -     @996 
  tdata   integral          32    'h0  
  tkeep   integral          4     'h0  
  tvalid  integral          1     'h0  
  tready  integral          1     'h0  
  tlast   integral          1     'h0  
---------------------------------------

UVM_INFO /home/xe-user106/10x-Engineers/SOC-DV/TCP/axi_dma_verification/verif/top/../stream_uvc/axis_write_monitor.sv(63) @ 590000: uvm_test_top.env.axis_wr_agt.monitor [axis_write_monitor] Transaction Collected from AXI-Stream Write Slave :
---------------------------------------
Name      Type              Size  Value
---------------------------------------
item      axis_transaction  -     @990 
  tdata   integral          32    'h0  
  tkeep   integral          4     'h0  
  tvalid  integral          1     'h0  
  tready  integral          1     'h1  
  tlast   integral          1     'h0  
---------------------------------------

UVM_INFO /home/xe-user106/10x-Engineers/SOC-DV/TCP/axi_dma_verification/verif/top/../stream_uvc/axis_read_monitor.sv(63) @ 590000: uvm_test_top.env.axis_r_agt.monitor [axis_read_monitor] Transaction Collected from AXI-Stream Read Master :
---------------------------------------
Name      Type              Size  Value
---------------------------------------
item      axis_transaction  -     @996 
  tdata   integral          32    'h0  
  tkeep   integral          4     'h0  
  tvalid  integral          1     'h0  
  tready  integral          1     'h0  
  tlast   integral          1     'h0  
---------------------------------------

UVM_INFO /home/xe-user106/10x-Engineers/SOC-DV/TCP/axi_dma_verification/verif/top/../register_uvc/axi_lite_monitor.sv(75) @ 590000: uvm_test_top.env.axi_lite_agt.monitor [axi_lite_monitor] Transaction Collected :
----------------------------------------------------
Name                  Type             Size  Value  
----------------------------------------------------
item                  reg_transaction  -     @1002  
  s_axi_lite_awvalid  integral         1     'h0    
  s_axi_lite_awready  integral         1     'h0    
  s_axi_lite_awaddr   integral         10    'h0    
  s_axi_lite_wvalid   integral         1     'h0    
  s_axi_lite_wready   integral         1     'h0    
  s_axi_lite_wdata    integral         32    'h11003
  s_axi_lite_bresp    integral         2     'h0    
  s_axi_lite_bvalid   integral         1     'h1    
  s_axi_lite_bready   integral         1     'h0    
  s_axi_lite_arvalid  integral         1     'h0    
  s_axi_lite_arready  integral         1     'h0    
  s_axi_lite_araddr   integral         10    'h0    
  s_axi_lite_rvalid   integral         1     'h0    
  s_axi_lite_rready   integral         1     'h0    
  s_axi_lite_rdata    integral         32    'h0    
  s_axi_lite_rresp    integral         2     'h0    
----------------------------------------------------

UVM_INFO /home/xe-user106/10x-Engineers/SOC-DV/TCP/axi_dma_verification/verif/top/../stream_uvc/axis_write_monitor.sv(63) @ 630000: uvm_test_top.env.axis_wr_agt.monitor [axis_write_monitor] Transaction Collected from AXI-Stream Write Slave :
---------------------------------------
Name      Type              Size  Value
---------------------------------------
item      axis_transaction  -     @990 
  tdata   integral          32    'h0  
  tkeep   integral          4     'h0  
  tvalid  integral          1     'h0  
  tready  integral          1     'h1  
  tlast   integral          1     'h0  
---------------------------------------

UVM_INFO /home/xe-user106/10x-Engineers/SOC-DV/TCP/axi_dma_verification/verif/top/../stream_uvc/axis_read_monitor.sv(63) @ 630000: uvm_test_top.env.axis_r_agt.monitor [axis_read_monitor] Transaction Collected from AXI-Stream Read Master :
---------------------------------------
Name      Type              Size  Value
---------------------------------------
item      axis_transaction  -     @996 
  tdata   integral          32    'h0  
  tkeep   integral          4     'h0  
  tvalid  integral          1     'h0  
  tready  integral          1     'h0  
  tlast   integral          1     'h0  
---------------------------------------

UVM_INFO /home/xe-user106/10x-Engineers/SOC-DV/TCP/axi_dma_verification/verif/top/../register_uvc/axi_lite_monitor.sv(75) @ 650000: uvm_test_top.env.axi_lite_agt.monitor [axi_lite_monitor] Transaction Collected :
----------------------------------------------------
Name                  Type             Size  Value  
----------------------------------------------------
item                  reg_transaction  -     @1002  
  s_axi_lite_awvalid  integral         1     'h1    
  s_axi_lite_awready  integral         1     'h0    
  s_axi_lite_awaddr   integral         10    'h18   
  s_axi_lite_wvalid   integral         1     'h0    
  s_axi_lite_wready   integral         1     'h0    
  s_axi_lite_wdata    integral         32    'h11003
  s_axi_lite_bresp    integral         2     'h0    
  s_axi_lite_bvalid   integral         1     'h0    
  s_axi_lite_bready   integral         1     'h1    
  s_axi_lite_arvalid  integral         1     'h0    
  s_axi_lite_arready  integral         1     'h0    
  s_axi_lite_araddr   integral         10    'h0    
  s_axi_lite_rvalid   integral         1     'h0    
  s_axi_lite_rready   integral         1     'h0    
  s_axi_lite_rdata    integral         32    'h0    
  s_axi_lite_rresp    integral         2     'h0    
----------------------------------------------------

UVM_INFO /home/xe-user106/10x-Engineers/SOC-DV/TCP/axi_dma_verification/verif/top/../stream_uvc/axis_write_monitor.sv(63) @ 670000: uvm_test_top.env.axis_wr_agt.monitor [axis_write_monitor] Transaction Collected from AXI-Stream Write Slave :
---------------------------------------
Name      Type              Size  Value
---------------------------------------
item      axis_transaction  -     @990 
  tdata   integral          32    'h0  
  tkeep   integral          4     'h0  
  tvalid  integral          1     'h0  
  tready  integral          1     'h1  
  tlast   integral          1     'h0  
---------------------------------------

UVM_INFO /home/xe-user106/10x-Engineers/SOC-DV/TCP/axi_dma_verification/verif/top/../stream_uvc/axis_read_monitor.sv(63) @ 670000: uvm_test_top.env.axis_r_agt.monitor [axis_read_monitor] Transaction Collected from AXI-Stream Read Master :
---------------------------------------
Name      Type              Size  Value
---------------------------------------
item      axis_transaction  -     @996 
  tdata   integral          32    'h0  
  tkeep   integral          4     'h0  
  tvalid  integral          1     'h0  
  tready  integral          1     'h0  
  tlast   integral          1     'h0  
---------------------------------------

UVM_INFO /home/xe-user106/10x-Engineers/SOC-DV/TCP/axi_dma_verification/verif/top/../stream_uvc/axis_write_monitor.sv(63) @ 710000: uvm_test_top.env.axis_wr_agt.monitor [axis_write_monitor] Transaction Collected from AXI-Stream Write Slave :
---------------------------------------
Name      Type              Size  Value
---------------------------------------
item      axis_transaction  -     @990 
  tdata   integral          32    'h0  
  tkeep   integral          4     'h0  
  tvalid  integral          1     'h0  
  tready  integral          1     'h1  
  tlast   integral          1     'h0  
---------------------------------------

UVM_INFO /home/xe-user106/10x-Engineers/SOC-DV/TCP/axi_dma_verification/verif/top/../stream_uvc/axis_read_monitor.sv(63) @ 710000: uvm_test_top.env.axis_r_agt.monitor [axis_read_monitor] Transaction Collected from AXI-Stream Read Master :
---------------------------------------
Name      Type              Size  Value
---------------------------------------
item      axis_transaction  -     @996 
  tdata   integral          32    'h0  
  tkeep   integral          4     'h0  
  tvalid  integral          1     'h0  
  tready  integral          1     'h0  
  tlast   integral          1     'h0  
---------------------------------------

UVM_INFO /home/xe-user106/10x-Engineers/SOC-DV/TCP/axi_dma_verification/verif/top/../register_uvc/axi_lite_monitor.sv(75) @ 710000: uvm_test_top.env.axi_lite_agt.monitor [axi_lite_monitor] Transaction Collected :
---------------------------------------------------
Name                  Type             Size  Value 
---------------------------------------------------
item                  reg_transaction  -     @1002 
  s_axi_lite_awvalid  integral         1     'h1   
  s_axi_lite_awready  integral         1     'h0   
  s_axi_lite_awaddr   integral         10    'h18  
  s_axi_lite_wvalid   integral         1     'h1   
  s_axi_lite_wready   integral         1     'h0   
  s_axi_lite_wdata    integral         32    'h1000
  s_axi_lite_bresp    integral         2     'h0   
  s_axi_lite_bvalid   integral         1     'h0   
  s_axi_lite_bready   integral         1     'h1   
  s_axi_lite_arvalid  integral         1     'h0   
  s_axi_lite_arready  integral         1     'h0   
  s_axi_lite_araddr   integral         10    'h0   
  s_axi_lite_rvalid   integral         1     'h0   
  s_axi_lite_rready   integral         1     'h0   
  s_axi_lite_rdata    integral         32    'h0   
  s_axi_lite_rresp    integral         2     'h0   
---------------------------------------------------

UVM_INFO /home/xe-user106/10x-Engineers/SOC-DV/TCP/axi_dma_verification/verif/top/../register_uvc/axi_lite_driver.sv(43) @ 750000: uvm_test_top.env.axi_lite_agt.driver [uvm_test_top.env.axi_lite_agt.driver] Driver Started
UVM_INFO /home/xe-user106/10x-Engineers/SOC-DV/TCP/axi_dma_verification/verif/top/../stream_uvc/axis_write_monitor.sv(63) @ 750000: uvm_test_top.env.axis_wr_agt.monitor [axis_write_monitor] Transaction Collected from AXI-Stream Write Slave :
---------------------------------------
Name      Type              Size  Value
---------------------------------------
item      axis_transaction  -     @990 
  tdata   integral          32    'h0  
  tkeep   integral          4     'h0  
  tvalid  integral          1     'h0  
  tready  integral          1     'h1  
  tlast   integral          1     'h0  
---------------------------------------

UVM_INFO /home/xe-user106/10x-Engineers/SOC-DV/TCP/axi_dma_verification/verif/top/../stream_uvc/axis_read_monitor.sv(63) @ 750000: uvm_test_top.env.axis_r_agt.monitor [axis_read_monitor] Transaction Collected from AXI-Stream Read Master :
---------------------------------------
Name      Type              Size  Value
---------------------------------------
item      axis_transaction  -     @996 
  tdata   integral          32    'h0  
  tkeep   integral          4     'h0  
  tvalid  integral          1     'h0  
  tready  integral          1     'h0  
  tlast   integral          1     'h0  
---------------------------------------

UVM_INFO /home/xe-user106/10x-Engineers/SOC-DV/TCP/axi_dma_verification/verif/top/../register_uvc/axi_lite_monitor.sv(75) @ 770000: uvm_test_top.env.axi_lite_agt.monitor [axi_lite_monitor] Transaction Collected :
---------------------------------------------------
Name                  Type             Size  Value 
---------------------------------------------------
item                  reg_transaction  -     @1002 
  s_axi_lite_awvalid  integral         1     'h1   
  s_axi_lite_awready  integral         1     'h0   
  s_axi_lite_awaddr   integral         10    'h18  
  s_axi_lite_wvalid   integral         1     'h1   
  s_axi_lite_wready   integral         1     'h0   
  s_axi_lite_wdata    integral         32    'h1000
  s_axi_lite_bresp    integral         2     'h0   
  s_axi_lite_bvalid   integral         1     'h0   
  s_axi_lite_bready   integral         1     'h1   
  s_axi_lite_arvalid  integral         1     'h0   
  s_axi_lite_arready  integral         1     'h0   
  s_axi_lite_araddr   integral         10    'h0   
  s_axi_lite_rvalid   integral         1     'h0   
  s_axi_lite_rready   integral         1     'h0   
  s_axi_lite_rdata    integral         32    'h0   
  s_axi_lite_rresp    integral         2     'h0   
---------------------------------------------------

UVM_INFO /home/xe-user106/10x-Engineers/SOC-DV/TCP/axi_dma_verification/verif/top/../stream_uvc/axis_write_monitor.sv(63) @ 790000: uvm_test_top.env.axis_wr_agt.monitor [axis_write_monitor] Transaction Collected from AXI-Stream Write Slave :
---------------------------------------
Name      Type              Size  Value
---------------------------------------
item      axis_transaction  -     @990 
  tdata   integral          32    'h0  
  tkeep   integral          4     'h0  
  tvalid  integral          1     'h0  
  tready  integral          1     'h1  
  tlast   integral          1     'h0  
---------------------------------------

UVM_INFO /home/xe-user106/10x-Engineers/SOC-DV/TCP/axi_dma_verification/verif/top/../stream_uvc/axis_read_monitor.sv(63) @ 790000: uvm_test_top.env.axis_r_agt.monitor [axis_read_monitor] Transaction Collected from AXI-Stream Read Master :
---------------------------------------
Name      Type              Size  Value
---------------------------------------
item      axis_transaction  -     @996 
  tdata   integral          32    'h0  
  tkeep   integral          4     'h0  
  tvalid  integral          1     'h0  
  tready  integral          1     'h0  
  tlast   integral          1     'h0  
---------------------------------------

UVM_INFO /home/xe-user106/10x-Engineers/SOC-DV/TCP/axi_dma_verification/verif/top/../stream_uvc/axis_write_monitor.sv(63) @ 830000: uvm_test_top.env.axis_wr_agt.monitor [axis_write_monitor] Transaction Collected from AXI-Stream Write Slave :
---------------------------------------
Name      Type              Size  Value
---------------------------------------
item      axis_transaction  -     @990 
  tdata   integral          32    'h0  
  tkeep   integral          4     'h0  
  tvalid  integral          1     'h0  
  tready  integral          1     'h1  
  tlast   integral          1     'h0  
---------------------------------------

UVM_INFO /home/xe-user106/10x-Engineers/SOC-DV/TCP/axi_dma_verification/verif/top/../stream_uvc/axis_read_monitor.sv(63) @ 830000: uvm_test_top.env.axis_r_agt.monitor [axis_read_monitor] Transaction Collected from AXI-Stream Read Master :
---------------------------------------
Name      Type              Size  Value
---------------------------------------
item      axis_transaction  -     @996 
  tdata   integral          32    'h0  
  tkeep   integral          4     'h0  
  tvalid  integral          1     'h0  
  tready  integral          1     'h0  
  tlast   integral          1     'h0  
---------------------------------------

UVM_INFO /home/xe-user106/10x-Engineers/SOC-DV/TCP/axi_dma_verification/verif/top/../register_uvc/axi_lite_monitor.sv(75) @ 830000: uvm_test_top.env.axi_lite_agt.monitor [axi_lite_monitor] Transaction Collected :
---------------------------------------------------
Name                  Type             Size  Value 
---------------------------------------------------
item                  reg_transaction  -     @1002 
  s_axi_lite_awvalid  integral         1     'h0   
  s_axi_lite_awready  integral         1     'h0   
  s_axi_lite_awaddr   integral         10    'h18  
  s_axi_lite_wvalid   integral         1     'h0   
  s_axi_lite_wready   integral         1     'h0   
  s_axi_lite_wdata    integral         32    'h1000
  s_axi_lite_bresp    integral         2     'h0   
  s_axi_lite_bvalid   integral         1     'h0   
  s_axi_lite_bready   integral         1     'h1   
  s_axi_lite_arvalid  integral         1     'h0   
  s_axi_lite_arready  integral         1     'h0   
  s_axi_lite_araddr   integral         10    'h0   
  s_axi_lite_rvalid   integral         1     'h0   
  s_axi_lite_rready   integral         1     'h0   
  s_axi_lite_rdata    integral         32    'h0   
  s_axi_lite_rresp    integral         2     'h0   
---------------------------------------------------

UVM_INFO /home/xe-user106/10x-Engineers/SOC-DV/TCP/axi_dma_verification/verif/top/../stream_uvc/axis_write_monitor.sv(63) @ 870000: uvm_test_top.env.axis_wr_agt.monitor [axis_write_monitor] Transaction Collected from AXI-Stream Write Slave :
---------------------------------------
Name      Type              Size  Value
---------------------------------------
item      axis_transaction  -     @990 
  tdata   integral          32    'h0  
  tkeep   integral          4     'h0  
  tvalid  integral          1     'h0  
  tready  integral          1     'h1  
  tlast   integral          1     'h0  
---------------------------------------

UVM_INFO /home/xe-user106/10x-Engineers/SOC-DV/TCP/axi_dma_verification/verif/top/../stream_uvc/axis_read_monitor.sv(63) @ 870000: uvm_test_top.env.axis_r_agt.monitor [axis_read_monitor] Transaction Collected from AXI-Stream Read Master :
---------------------------------------
Name      Type              Size  Value
---------------------------------------
item      axis_transaction  -     @996 
  tdata   integral          32    'h0  
  tkeep   integral          4     'h0  
  tvalid  integral          1     'h0  
  tready  integral          1     'h0  
  tlast   integral          1     'h0  
---------------------------------------

UVM_INFO /home/xe-user106/10x-Engineers/SOC-DV/TCP/axi_dma_verification/verif/top/../register_uvc/axi_lite_monitor.sv(75) @ 890000: uvm_test_top.env.axi_lite_agt.monitor [axi_lite_monitor] Transaction Collected :
---------------------------------------------------
Name                  Type             Size  Value 
---------------------------------------------------
item                  reg_transaction  -     @1002 
  s_axi_lite_awvalid  integral         1     'h1   
  s_axi_lite_awready  integral         1     'h0   
  s_axi_lite_awaddr   integral         10    'h28  
  s_axi_lite_wvalid   integral         1     'h0   
  s_axi_lite_wready   integral         1     'h0   
  s_axi_lite_wdata    integral         32    'h1000
  s_axi_lite_bresp    integral         2     'h0   
  s_axi_lite_bvalid   integral         1     'h0   
  s_axi_lite_bready   integral         1     'h1   
  s_axi_lite_arvalid  integral         1     'h0   
  s_axi_lite_arready  integral         1     'h0   
  s_axi_lite_araddr   integral         10    'h0   
  s_axi_lite_rvalid   integral         1     'h0   
  s_axi_lite_rready   integral         1     'h0   
  s_axi_lite_rdata    integral         32    'h0   
  s_axi_lite_rresp    integral         2     'h0   
---------------------------------------------------

UVM_INFO /home/xe-user106/10x-Engineers/SOC-DV/TCP/axi_dma_verification/verif/top/../stream_uvc/axis_write_monitor.sv(63) @ 910000: uvm_test_top.env.axis_wr_agt.monitor [axis_write_monitor] Transaction Collected from AXI-Stream Write Slave :
---------------------------------------
Name      Type              Size  Value
---------------------------------------
item      axis_transaction  -     @990 
  tdata   integral          32    'h0  
  tkeep   integral          4     'h0  
  tvalid  integral          1     'h0  
  tready  integral          1     'h1  
  tlast   integral          1     'h0  
---------------------------------------

UVM_INFO /home/xe-user106/10x-Engineers/SOC-DV/TCP/axi_dma_verification/verif/top/../stream_uvc/axis_read_monitor.sv(63) @ 910000: uvm_test_top.env.axis_r_agt.monitor [axis_read_monitor] Transaction Collected from AXI-Stream Read Master :
---------------------------------------
Name      Type              Size  Value
---------------------------------------
item      axis_transaction  -     @996 
  tdata   integral          32    'h0  
  tkeep   integral          4     'h0  
  tvalid  integral          1     'h0  
  tready  integral          1     'h0  
  tlast   integral          1     'h0  
---------------------------------------

UVM_INFO /home/xe-user106/10x-Engineers/SOC-DV/TCP/axi_dma_verification/verif/top/../stream_uvc/axis_write_monitor.sv(63) @ 950000: uvm_test_top.env.axis_wr_agt.monitor [axis_write_monitor] Transaction Collected from AXI-Stream Write Slave :
---------------------------------------
Name      Type              Size  Value
---------------------------------------
item      axis_transaction  -     @990 
  tdata   integral          32    'h0  
  tkeep   integral          4     'h0  
  tvalid  integral          1     'h0  
  tready  integral          1     'h1  
  tlast   integral          1     'h0  
---------------------------------------

UVM_INFO /home/xe-user106/10x-Engineers/SOC-DV/TCP/axi_dma_verification/verif/top/../stream_uvc/axis_read_monitor.sv(63) @ 950000: uvm_test_top.env.axis_r_agt.monitor [axis_read_monitor] Transaction Collected from AXI-Stream Read Master :
---------------------------------------
Name      Type              Size  Value
---------------------------------------
item      axis_transaction  -     @996 
  tdata   integral          32    'h0  
  tkeep   integral          4     'h0  
  tvalid  integral          1     'h0  
  tready  integral          1     'h0  
  tlast   integral          1     'h0  
---------------------------------------

UVM_INFO /home/xe-user106/10x-Engineers/SOC-DV/TCP/axi_dma_verification/verif/top/../register_uvc/axi_lite_monitor.sv(75) @ 950000: uvm_test_top.env.axi_lite_agt.monitor [axi_lite_monitor] Transaction Collected :
--------------------------------------------------
Name                  Type             Size  Value
--------------------------------------------------
item                  reg_transaction  -     @1002
  s_axi_lite_awvalid  integral         1     'h1  
  s_axi_lite_awready  integral         1     'h0  
  s_axi_lite_awaddr   integral         10    'h28 
  s_axi_lite_wvalid   integral         1     'h1  
  s_axi_lite_wready   integral         1     'h0  
  s_axi_lite_wdata    integral         32    'h64 
  s_axi_lite_bresp    integral         2     'h0  
  s_axi_lite_bvalid   integral         1     'h0  
  s_axi_lite_bready   integral         1     'h1  
  s_axi_lite_arvalid  integral         1     'h0  
  s_axi_lite_arready  integral         1     'h0  
  s_axi_lite_araddr   integral         10    'h0  
  s_axi_lite_rvalid   integral         1     'h0  
  s_axi_lite_rready   integral         1     'h0  
  s_axi_lite_rdata    integral         32    'h0  
  s_axi_lite_rresp    integral         2     'h0  
--------------------------------------------------

UVM_INFO /home/xe-user106/10x-Engineers/SOC-DV/TCP/axi_dma_verification/verif/top/../register_uvc/axi_lite_driver.sv(43) @ 970000: uvm_test_top.env.axi_lite_agt.driver [uvm_test_top.env.axi_lite_agt.driver] Driver Started
UVM_INFO /home/xe-user106/10x-Engineers/SOC-DV/TCP/axi_dma_verification/verif/top/../register_uvc/reg_sequence.sv(88) @ 970000: uvm_test_top.env.axi_lite_agt.sequencer@@default_rd [default_rd_sequence] Executing Default Read Sequence
UVM_INFO /home/xe-user106/10x-Engineers/SOC-DV/TCP/axi_dma_verification/verif/top/../stream_uvc/axis_write_monitor.sv(63) @ 990000: uvm_test_top.env.axis_wr_agt.monitor [axis_write_monitor] Transaction Collected from AXI-Stream Write Slave :
---------------------------------------
Name      Type              Size  Value
---------------------------------------
item      axis_transaction  -     @990 
  tdata   integral          32    'h0  
  tkeep   integral          4     'h0  
  tvalid  integral          1     'h0  
  tready  integral          1     'h1  
  tlast   integral          1     'h0  
---------------------------------------

UVM_INFO /home/xe-user106/10x-Engineers/SOC-DV/TCP/axi_dma_verification/verif/top/../stream_uvc/axis_read_monitor.sv(63) @ 990000: uvm_test_top.env.axis_r_agt.monitor [axis_read_monitor] Transaction Collected from AXI-Stream Read Master :
---------------------------------------
Name      Type              Size  Value
---------------------------------------
item      axis_transaction  -     @996 
  tdata   integral          32    'h0  
  tkeep   integral          4     'h0  
  tvalid  integral          1     'h0  
  tready  integral          1     'h0  
  tlast   integral          1     'h0  
---------------------------------------

UVM_INFO /home/xe-user106/10x-Engineers/SOC-DV/TCP/axi_dma_verification/verif/top/../register_uvc/axi_lite_monitor.sv(75) @ 1010000: uvm_test_top.env.axi_lite_agt.monitor [axi_lite_monitor] Transaction Collected :
--------------------------------------------------
Name                  Type             Size  Value
--------------------------------------------------
item                  reg_transaction  -     @1002
  s_axi_lite_awvalid  integral         1     'h1  
  s_axi_lite_awready  integral         1     'h1  
  s_axi_lite_awaddr   integral         10    'h28 
  s_axi_lite_wvalid   integral         1     'h1  
  s_axi_lite_wready   integral         1     'h1  
  s_axi_lite_wdata    integral         32    'h64 
  s_axi_lite_bresp    integral         2     'h0  
  s_axi_lite_bvalid   integral         1     'h0  
  s_axi_lite_bready   integral         1     'h1  
  s_axi_lite_arvalid  integral         1     'h0  
  s_axi_lite_arready  integral         1     'h0  
  s_axi_lite_araddr   integral         10    'h0  
  s_axi_lite_rvalid   integral         1     'h0  
  s_axi_lite_rready   integral         1     'h0  
  s_axi_lite_rdata    integral         32    'h0  
  s_axi_lite_rresp    integral         2     'h0  
--------------------------------------------------

UVM_INFO /home/xe-user106/10x-Engineers/SOC-DV/TCP/axi_dma_verification/verif/top/../stream_uvc/axis_write_monitor.sv(63) @ 1030000: uvm_test_top.env.axis_wr_agt.monitor [axis_write_monitor] Transaction Collected from AXI-Stream Write Slave :
---------------------------------------
Name      Type              Size  Value
---------------------------------------
item      axis_transaction  -     @990 
  tdata   integral          32    'h0  
  tkeep   integral          4     'h0  
  tvalid  integral          1     'h0  
  tready  integral          1     'h1  
  tlast   integral          1     'h0  
---------------------------------------

UVM_INFO /home/xe-user106/10x-Engineers/SOC-DV/TCP/axi_dma_verification/verif/top/../stream_uvc/axis_read_monitor.sv(63) @ 1030000: uvm_test_top.env.axis_r_agt.monitor [axis_read_monitor] Transaction Collected from AXI-Stream Read Master :
---------------------------------------
Name      Type              Size  Value
---------------------------------------
item      axis_transaction  -     @996 
  tdata   integral          32    'h0  
  tkeep   integral          4     'h0  
  tvalid  integral          1     'h0  
  tready  integral          1     'h0  
  tlast   integral          1     'h0  
---------------------------------------

UVM_INFO /home/xe-user106/10x-Engineers/SOC-DV/TCP/axi_dma_verification/verif/top/../stream_uvc/axis_write_monitor.sv(63) @ 1070000: uvm_test_top.env.axis_wr_agt.monitor [axis_write_monitor] Transaction Collected from AXI-Stream Write Slave :
---------------------------------------
Name      Type              Size  Value
---------------------------------------
item      axis_transaction  -     @990 
  tdata   integral          32    'h0  
  tkeep   integral          4     'h0  
  tvalid  integral          1     'h0  
  tready  integral          1     'h1  
  tlast   integral          1     'h0  
---------------------------------------

UVM_INFO /home/xe-user106/10x-Engineers/SOC-DV/TCP/axi_dma_verification/verif/top/../stream_uvc/axis_read_monitor.sv(63) @ 1070000: uvm_test_top.env.axis_r_agt.monitor [axis_read_monitor] Transaction Collected from AXI-Stream Read Master :
---------------------------------------
Name      Type              Size  Value
---------------------------------------
item      axis_transaction  -     @996 
  tdata   integral          32    'h0  
  tkeep   integral          4     'h0  
  tvalid  integral          1     'h0  
  tready  integral          1     'h0  
  tlast   integral          1     'h0  
---------------------------------------

UVM_INFO /home/xe-user106/10x-Engineers/SOC-DV/TCP/axi_dma_verification/verif/top/../register_uvc/axi_lite_monitor.sv(75) @ 1070000: uvm_test_top.env.axi_lite_agt.monitor [axi_lite_monitor] Transaction Collected :
--------------------------------------------------
Name                  Type             Size  Value
--------------------------------------------------
item                  reg_transaction  -     @1002
  s_axi_lite_awvalid  integral         1     'h0  
  s_axi_lite_awready  integral         1     'h0  
  s_axi_lite_awaddr   integral         10    'h28 
  s_axi_lite_wvalid   integral         1     'h0  
  s_axi_lite_wready   integral         1     'h0  
  s_axi_lite_wdata    integral         32    'h64 
  s_axi_lite_bresp    integral         2     'h0  
  s_axi_lite_bvalid   integral         1     'h0  
  s_axi_lite_bready   integral         1     'h1  
  s_axi_lite_arvalid  integral         1     'h0  
  s_axi_lite_arready  integral         1     'h0  
  s_axi_lite_araddr   integral         10    'h0  
  s_axi_lite_rvalid   integral         1     'h0  
  s_axi_lite_rready   integral         1     'h0  
  s_axi_lite_rdata    integral         32    'h0  
  s_axi_lite_rresp    integral         2     'h0  
--------------------------------------------------

UVM_INFO /home/xe-user106/10x-Engineers/SOC-DV/TCP/axi_dma_verification/verif/top/../stream_uvc/axis_write_monitor.sv(63) @ 1110000: uvm_test_top.env.axis_wr_agt.monitor [axis_write_monitor] Transaction Collected from AXI-Stream Write Slave :
---------------------------------------
Name      Type              Size  Value
---------------------------------------
item      axis_transaction  -     @990 
  tdata   integral          32    'h0  
  tkeep   integral          4     'h0  
  tvalid  integral          1     'h0  
  tready  integral          1     'h1  
  tlast   integral          1     'h0  
---------------------------------------

UVM_INFO /home/xe-user106/10x-Engineers/SOC-DV/TCP/axi_dma_verification/verif/top/../stream_uvc/axis_read_monitor.sv(63) @ 1110000: uvm_test_top.env.axis_r_agt.monitor [axis_read_monitor] Transaction Collected from AXI-Stream Read Master :
---------------------------------------
Name      Type              Size  Value
---------------------------------------
item      axis_transaction  -     @996 
  tdata   integral          32    'h0  
  tkeep   integral          4     'h0  
  tvalid  integral          1     'h0  
  tready  integral          1     'h0  
  tlast   integral          1     'h0  
---------------------------------------

UVM_INFO /home/xe-user106/10x-Engineers/SOC-DV/TCP/axi_dma_verification/verif/top/../register_uvc/axi_lite_monitor.sv(75) @ 1130000: uvm_test_top.env.axi_lite_agt.monitor [axi_lite_monitor] Transaction Collected :
--------------------------------------------------
Name                  Type             Size  Value
--------------------------------------------------
item                  reg_transaction  -     @1002
  s_axi_lite_awvalid  integral         1     'h0  
  s_axi_lite_awready  integral         1     'h0  
  s_axi_lite_awaddr   integral         10    'h28 
  s_axi_lite_wvalid   integral         1     'h0  
  s_axi_lite_wready   integral         1     'h0  
  s_axi_lite_wdata    integral         32    'h64 
  s_axi_lite_bresp    integral         2     'h0  
  s_axi_lite_bvalid   integral         1     'h0  
  s_axi_lite_bready   integral         1     'h1  
  s_axi_lite_arvalid  integral         1     'h1  
  s_axi_lite_arready  integral         1     'h1  
  s_axi_lite_araddr   integral         10    'h0  
  s_axi_lite_rvalid   integral         1     'h0  
  s_axi_lite_rready   integral         1     'h0  
  s_axi_lite_rdata    integral         32    'h0  
  s_axi_lite_rresp    integral         2     'h0  
--------------------------------------------------

UVM_INFO /home/xe-user106/10x-Engineers/SOC-DV/TCP/axi_dma_verification/verif/top/../register_uvc/axi_lite_driver.sv(43) @ 1130000: uvm_test_top.env.axi_lite_agt.driver [uvm_test_top.env.axi_lite_agt.driver] Driver Started
UVM_INFO /home/xe-user106/10x-Engineers/SOC-DV/TCP/axi_dma_verification/verif/top/../stream_uvc/axis_write_monitor.sv(63) @ 1150000: uvm_test_top.env.axis_wr_agt.monitor [axis_write_monitor] Transaction Collected from AXI-Stream Write Slave :
---------------------------------------
Name      Type              Size  Value
---------------------------------------
item      axis_transaction  -     @990 
  tdata   integral          32    'h0  
  tkeep   integral          4     'h0  
  tvalid  integral          1     'h0  
  tready  integral          1     'h1  
  tlast   integral          1     'h0  
---------------------------------------

UVM_INFO /home/xe-user106/10x-Engineers/SOC-DV/TCP/axi_dma_verification/verif/top/../stream_uvc/axis_read_monitor.sv(63) @ 1150000: uvm_test_top.env.axis_r_agt.monitor [axis_read_monitor] Transaction Collected from AXI-Stream Read Master :
---------------------------------------
Name      Type              Size  Value
---------------------------------------
item      axis_transaction  -     @996 
  tdata   integral          32    'h0  
  tkeep   integral          4     'h0  
  tvalid  integral          1     'h0  
  tready  integral          1     'h0  
  tlast   integral          1     'h0  
---------------------------------------

UVM_INFO /home/xe-user106/10x-Engineers/SOC-DV/TCP/axi_dma_verification/verif/top/../stream_uvc/axis_write_monitor.sv(63) @ 1190000: uvm_test_top.env.axis_wr_agt.monitor [axis_write_monitor] Transaction Collected from AXI-Stream Write Slave :
---------------------------------------
Name      Type              Size  Value
---------------------------------------
item      axis_transaction  -     @990 
  tdata   integral          32    'h0  
  tkeep   integral          4     'h0  
  tvalid  integral          1     'h0  
  tready  integral          1     'h1  
  tlast   integral          1     'h0  
---------------------------------------

UVM_INFO /home/xe-user106/10x-Engineers/SOC-DV/TCP/axi_dma_verification/verif/top/../stream_uvc/axis_read_monitor.sv(63) @ 1190000: uvm_test_top.env.axis_r_agt.monitor [axis_read_monitor] Transaction Collected from AXI-Stream Read Master :
---------------------------------------
Name      Type              Size  Value
---------------------------------------
item      axis_transaction  -     @996 
  tdata   integral          32    'h0  
  tkeep   integral          4     'h0  
  tvalid  integral          1     'h0  
  tready  integral          1     'h0  
  tlast   integral          1     'h0  
---------------------------------------

UVM_INFO /home/xe-user106/10x-Engineers/SOC-DV/TCP/axi_dma_verification/verif/top/../register_uvc/axi_lite_monitor.sv(75) @ 1190000: uvm_test_top.env.axi_lite_agt.monitor [axi_lite_monitor] Transaction Collected :
----------------------------------------------------
Name                  Type             Size  Value  
----------------------------------------------------
item                  reg_transaction  -     @1002  
  s_axi_lite_awvalid  integral         1     'h0    
  s_axi_lite_awready  integral         1     'h0    
  s_axi_lite_awaddr   integral         10    'h28   
  s_axi_lite_wvalid   integral         1     'h0    
  s_axi_lite_wready   integral         1     'h0    
  s_axi_lite_wdata    integral         32    'h64   
  s_axi_lite_bresp    integral         2     'h0    
  s_axi_lite_bvalid   integral         1     'h0    
  s_axi_lite_bready   integral         1     'h1    
  s_axi_lite_arvalid  integral         1     'h0    
  s_axi_lite_arready  integral         1     'h0    
  s_axi_lite_araddr   integral         10    'h0    
  s_axi_lite_rvalid   integral         1     'h1    
  s_axi_lite_rready   integral         1     'h0    
  s_axi_lite_rdata    integral         32    'h11003
  s_axi_lite_rresp    integral         2     'h0    
----------------------------------------------------

UVM_INFO /home/xe-user106/10x-Engineers/SOC-DV/TCP/axi_dma_verification/verif/top/../stream_uvc/axis_write_monitor.sv(63) @ 1230000: uvm_test_top.env.axis_wr_agt.monitor [axis_write_monitor] Transaction Collected from AXI-Stream Write Slave :
---------------------------------------
Name      Type              Size  Value
---------------------------------------
item      axis_transaction  -     @990 
  tdata   integral          32    'h0  
  tkeep   integral          4     'h0  
  tvalid  integral          1     'h0  
  tready  integral          1     'h1  
  tlast   integral          1     'h0  
---------------------------------------

UVM_INFO /home/xe-user106/10x-Engineers/SOC-DV/TCP/axi_dma_verification/verif/top/../stream_uvc/axis_read_monitor.sv(63) @ 1230000: uvm_test_top.env.axis_r_agt.monitor [axis_read_monitor] Transaction Collected from AXI-Stream Read Master :
---------------------------------------
Name      Type              Size  Value
---------------------------------------
item      axis_transaction  -     @996 
  tdata   integral          32    'h0  
  tkeep   integral          4     'h0  
  tvalid  integral          1     'h0  
  tready  integral          1     'h0  
  tlast   integral          1     'h0  
---------------------------------------

UVM_INFO /home/xe-user106/10x-Engineers/SOC-DV/TCP/axi_dma_verification/verif/top/../register_uvc/axi_lite_monitor.sv(75) @ 1250000: uvm_test_top.env.axi_lite_agt.monitor [axi_lite_monitor] Transaction Collected :
--------------------------------------------------
Name                  Type             Size  Value
--------------------------------------------------
item                  reg_transaction  -     @1002
  s_axi_lite_awvalid  integral         1     'h0  
  s_axi_lite_awready  integral         1     'h0  
  s_axi_lite_awaddr   integral         10    'h28 
  s_axi_lite_wvalid   integral         1     'h0  
  s_axi_lite_wready   integral         1     'h0  
  s_axi_lite_wdata    integral         32    'h64 
  s_axi_lite_bresp    integral         2     'h0  
  s_axi_lite_bvalid   integral         1     'h0  
  s_axi_lite_bready   integral         1     'h1  
  s_axi_lite_arvalid  integral         1     'h1  
  s_axi_lite_arready  integral         1     'h0  
  s_axi_lite_araddr   integral         10    'h0  
  s_axi_lite_rvalid   integral         1     'h0  
  s_axi_lite_rready   integral         1     'h0  
  s_axi_lite_rdata    integral         32    'h0  
  s_axi_lite_rresp    integral         2     'h0  
--------------------------------------------------

UVM_INFO /home/xe-user106/10x-Engineers/SOC-DV/TCP/axi_dma_verification/verif/top/../stream_uvc/axis_write_monitor.sv(63) @ 1270000: uvm_test_top.env.axis_wr_agt.monitor [axis_write_monitor] Transaction Collected from AXI-Stream Write Slave :
---------------------------------------
Name      Type              Size  Value
---------------------------------------
item      axis_transaction  -     @990 
  tdata   integral          32    'h0  
  tkeep   integral          4     'h0  
  tvalid  integral          1     'h0  
  tready  integral          1     'h1  
  tlast   integral          1     'h0  
---------------------------------------

UVM_INFO /home/xe-user106/10x-Engineers/SOC-DV/TCP/axi_dma_verification/verif/top/../stream_uvc/axis_read_monitor.sv(63) @ 1270000: uvm_test_top.env.axis_r_agt.monitor [axis_read_monitor] Transaction Collected from AXI-Stream Read Master :
---------------------------------------
Name      Type              Size  Value
---------------------------------------
item      axis_transaction  -     @996 
  tdata   integral          32    'h0  
  tkeep   integral          4     'h0  
  tvalid  integral          1     'h0  
  tready  integral          1     'h0  
  tlast   integral          1     'h0  
---------------------------------------

UVM_INFO /home/xe-user106/10x-Engineers/SOC-DV/TCP/axi_dma_verification/verif/top/../register_uvc/axi_lite_driver.sv(43) @ 1290000: uvm_test_top.env.axi_lite_agt.driver [uvm_test_top.env.axi_lite_agt.driver] Driver Started
UVM_INFO /home/xe-user106/10x-Engineers/SOC-DV/TCP/axi_dma_verification/verif/top/../stream_uvc/axis_write_monitor.sv(63) @ 1310000: uvm_test_top.env.axis_wr_agt.monitor [axis_write_monitor] Transaction Collected from AXI-Stream Write Slave :
---------------------------------------
Name      Type              Size  Value
---------------------------------------
item      axis_transaction  -     @990 
  tdata   integral          32    'h0  
  tkeep   integral          4     'h0  
  tvalid  integral          1     'h0  
  tready  integral          1     'h1  
  tlast   integral          1     'h0  
---------------------------------------

UVM_INFO /home/xe-user106/10x-Engineers/SOC-DV/TCP/axi_dma_verification/verif/top/../stream_uvc/axis_read_monitor.sv(63) @ 1310000: uvm_test_top.env.axis_r_agt.monitor [axis_read_monitor] Transaction Collected from AXI-Stream Read Master :
---------------------------------------
Name      Type              Size  Value
---------------------------------------
item      axis_transaction  -     @996 
  tdata   integral          32    'h0  
  tkeep   integral          4     'h0  
  tvalid  integral          1     'h0  
  tready  integral          1     'h0  
  tlast   integral          1     'h0  
---------------------------------------

UVM_INFO /home/xe-user106/10x-Engineers/SOC-DV/TCP/axi_dma_verification/verif/top/../register_uvc/axi_lite_monitor.sv(75) @ 1310000: uvm_test_top.env.axi_lite_agt.monitor [axi_lite_monitor] Transaction Collected :
--------------------------------------------------
Name                  Type             Size  Value
--------------------------------------------------
item                  reg_transaction  -     @1002
  s_axi_lite_awvalid  integral         1     'h0  
  s_axi_lite_awready  integral         1     'h0  
  s_axi_lite_awaddr   integral         10    'h28 
  s_axi_lite_wvalid   integral         1     'h0  
  s_axi_lite_wready   integral         1     'h0  
  s_axi_lite_wdata    integral         32    'h64 
  s_axi_lite_bresp    integral         2     'h0  
  s_axi_lite_bvalid   integral         1     'h0  
  s_axi_lite_bready   integral         1     'h1  
  s_axi_lite_arvalid  integral         1     'h0  
  s_axi_lite_arready  integral         1     'h0  
  s_axi_lite_araddr   integral         10    'h0  
  s_axi_lite_rvalid   integral         1     'h0  
  s_axi_lite_rready   integral         1     'h0  
  s_axi_lite_rdata    integral         32    'h0  
  s_axi_lite_rresp    integral         2     'h0  
--------------------------------------------------

UVM_INFO /home/xe-user106/10x-Engineers/SOC-DV/TCP/axi_dma_verification/verif/top/../stream_uvc/axis_write_monitor.sv(63) @ 1350000: uvm_test_top.env.axis_wr_agt.monitor [axis_write_monitor] Transaction Collected from AXI-Stream Write Slave :
---------------------------------------
Name      Type              Size  Value
---------------------------------------
item      axis_transaction  -     @990 
  tdata   integral          32    'h0  
  tkeep   integral          4     'h0  
  tvalid  integral          1     'h0  
  tready  integral          1     'h1  
  tlast   integral          1     'h0  
---------------------------------------

UVM_INFO /home/xe-user106/10x-Engineers/SOC-DV/TCP/axi_dma_verification/verif/top/../stream_uvc/axis_read_monitor.sv(63) @ 1350000: uvm_test_top.env.axis_r_agt.monitor [axis_read_monitor] Transaction Collected from AXI-Stream Read Master :
---------------------------------------
Name      Type              Size  Value
---------------------------------------
item      axis_transaction  -     @996 
  tdata   integral          32    'h0  
  tkeep   integral          4     'h0  
  tvalid  integral          1     'h0  
  tready  integral          1     'h0  
  tlast   integral          1     'h0  
---------------------------------------

UVM_INFO /home/xe-user106/10x-Engineers/SOC-DV/TCP/axi_dma_verification/verif/top/../register_uvc/axi_lite_monitor.sv(75) @ 1370000: uvm_test_top.env.axi_lite_agt.monitor [axi_lite_monitor] Transaction Collected :
----------------------------------------------------
Name                  Type             Size  Value  
----------------------------------------------------
item                  reg_transaction  -     @1002  
  s_axi_lite_awvalid  integral         1     'h0    
  s_axi_lite_awready  integral         1     'h0    
  s_axi_lite_awaddr   integral         10    'h28   
  s_axi_lite_wvalid   integral         1     'h0    
  s_axi_lite_wready   integral         1     'h0    
  s_axi_lite_wdata    integral         32    'h64   
  s_axi_lite_bresp    integral         2     'h0    
  s_axi_lite_bvalid   integral         1     'h0    
  s_axi_lite_bready   integral         1     'h1    
  s_axi_lite_arvalid  integral         1     'h0    
  s_axi_lite_arready  integral         1     'h0    
  s_axi_lite_araddr   integral         10    'h0    
  s_axi_lite_rvalid   integral         1     'h1    
  s_axi_lite_rready   integral         1     'h1    
  s_axi_lite_rdata    integral         32    'h11003
  s_axi_lite_rresp    integral         2     'h0    
----------------------------------------------------

UVM_INFO /home/xe-user106/10x-Engineers/SOC-DV/TCP/axi_dma_verification/verif/top/../stream_uvc/axis_write_monitor.sv(63) @ 1390000: uvm_test_top.env.axis_wr_agt.monitor [axis_write_monitor] Transaction Collected from AXI-Stream Write Slave :
---------------------------------------
Name      Type              Size  Value
---------------------------------------
item      axis_transaction  -     @990 
  tdata   integral          32    'h0  
  tkeep   integral          4     'h0  
  tvalid  integral          1     'h0  
  tready  integral          1     'h1  
  tlast   integral          1     'h0  
---------------------------------------

UVM_INFO /home/xe-user106/10x-Engineers/SOC-DV/TCP/axi_dma_verification/verif/top/../stream_uvc/axis_read_monitor.sv(63) @ 1390000: uvm_test_top.env.axis_r_agt.monitor [axis_read_monitor] Transaction Collected from AXI-Stream Read Master :
---------------------------------------
Name      Type              Size  Value
---------------------------------------
item      axis_transaction  -     @996 
  tdata   integral          32    'h0  
  tkeep   integral          4     'h0  
  tvalid  integral          1     'h0  
  tready  integral          1     'h0  
  tlast   integral          1     'h0  
---------------------------------------

UVM_INFO /home/xe-user106/10x-Engineers/SOC-DV/TCP/axi_dma_verification/verif/top/../stream_uvc/axis_write_monitor.sv(63) @ 1430000: uvm_test_top.env.axis_wr_agt.monitor [axis_write_monitor] Transaction Collected from AXI-Stream Write Slave :
---------------------------------------
Name      Type              Size  Value
---------------------------------------
item      axis_transaction  -     @990 
  tdata   integral          32    'h0  
  tkeep   integral          4     'h0  
  tvalid  integral          1     'h0  
  tready  integral          1     'h1  
  tlast   integral          1     'h0  
---------------------------------------

UVM_INFO /home/xe-user106/10x-Engineers/SOC-DV/TCP/axi_dma_verification/verif/top/../stream_uvc/axis_read_monitor.sv(63) @ 1430000: uvm_test_top.env.axis_r_agt.monitor [axis_read_monitor] Transaction Collected from AXI-Stream Read Master :
---------------------------------------
Name      Type              Size  Value
---------------------------------------
item      axis_transaction  -     @996 
  tdata   integral          32    'h0  
  tkeep   integral          4     'h0  
  tvalid  integral          1     'h0  
  tready  integral          1     'h0  
  tlast   integral          1     'h0  
---------------------------------------

UVM_INFO /home/xe-user106/10x-Engineers/SOC-DV/TCP/axi_dma_verification/verif/top/../register_uvc/axi_lite_monitor.sv(75) @ 1430000: uvm_test_top.env.axi_lite_agt.monitor [axi_lite_monitor] Transaction Collected :
--------------------------------------------------
Name                  Type             Size  Value
--------------------------------------------------
item                  reg_transaction  -     @1002
  s_axi_lite_awvalid  integral         1     'h0  
  s_axi_lite_awready  integral         1     'h0  
  s_axi_lite_awaddr   integral         10    'h28 
  s_axi_lite_wvalid   integral         1     'h0  
  s_axi_lite_wready   integral         1     'h0  
  s_axi_lite_wdata    integral         32    'h64 
  s_axi_lite_bresp    integral         2     'h0  
  s_axi_lite_bvalid   integral         1     'h0  
  s_axi_lite_bready   integral         1     'h1  
  s_axi_lite_arvalid  integral         1     'h1  
  s_axi_lite_arready  integral         1     'h0  
  s_axi_lite_araddr   integral         10    'h4  
  s_axi_lite_rvalid   integral         1     'h0  
  s_axi_lite_rready   integral         1     'h0  
  s_axi_lite_rdata    integral         32    'h0  
  s_axi_lite_rresp    integral         2     'h0  
--------------------------------------------------

UVM_INFO /home/xe-user106/10x-Engineers/SOC-DV/TCP/axi_dma_verification/verif/top/../register_uvc/axi_lite_driver.sv(43) @ 1450000: uvm_test_top.env.axi_lite_agt.driver [uvm_test_top.env.axi_lite_agt.driver] Driver Started
UVM_INFO /home/xe-user106/10x-Engineers/SOC-DV/TCP/axi_dma_verification/verif/top/../stream_uvc/axis_write_monitor.sv(63) @ 1470000: uvm_test_top.env.axis_wr_agt.monitor [axis_write_monitor] Transaction Collected from AXI-Stream Write Slave :
---------------------------------------
Name      Type              Size  Value
---------------------------------------
item      axis_transaction  -     @990 
  tdata   integral          32    'h0  
  tkeep   integral          4     'h0  
  tvalid  integral          1     'h0  
  tready  integral          1     'h1  
  tlast   integral          1     'h0  
---------------------------------------

UVM_INFO /home/xe-user106/10x-Engineers/SOC-DV/TCP/axi_dma_verification/verif/top/../stream_uvc/axis_read_monitor.sv(63) @ 1470000: uvm_test_top.env.axis_r_agt.monitor [axis_read_monitor] Transaction Collected from AXI-Stream Read Master :
---------------------------------------
Name      Type              Size  Value
---------------------------------------
item      axis_transaction  -     @996 
  tdata   integral          32    'h0  
  tkeep   integral          4     'h0  
  tvalid  integral          1     'h0  
  tready  integral          1     'h0  
  tlast   integral          1     'h0  
---------------------------------------

UVM_INFO /home/xe-user106/10x-Engineers/SOC-DV/TCP/axi_dma_verification/verif/top/../register_uvc/axi_lite_monitor.sv(75) @ 1490000: uvm_test_top.env.axi_lite_agt.monitor [axi_lite_monitor] Transaction Collected :
--------------------------------------------------
Name                  Type             Size  Value
--------------------------------------------------
item                  reg_transaction  -     @1002
  s_axi_lite_awvalid  integral         1     'h0  
  s_axi_lite_awready  integral         1     'h0  
  s_axi_lite_awaddr   integral         10    'h28 
  s_axi_lite_wvalid   integral         1     'h0  
  s_axi_lite_wready   integral         1     'h0  
  s_axi_lite_wdata    integral         32    'h64 
  s_axi_lite_bresp    integral         2     'h0  
  s_axi_lite_bvalid   integral         1     'h0  
  s_axi_lite_bready   integral         1     'h1  
  s_axi_lite_arvalid  integral         1     'h0  
  s_axi_lite_arready  integral         1     'h0  
  s_axi_lite_araddr   integral         10    'h4  
  s_axi_lite_rvalid   integral         1     'h1  
  s_axi_lite_rready   integral         1     'h0  
  s_axi_lite_rdata    integral         32    'h0  
  s_axi_lite_rresp    integral         2     'h0  
--------------------------------------------------

UVM_INFO /home/xe-user106/10x-Engineers/SOC-DV/TCP/axi_dma_verification/verif/top/../stream_uvc/axis_write_monitor.sv(63) @ 1510000: uvm_test_top.env.axis_wr_agt.monitor [axis_write_monitor] Transaction Collected from AXI-Stream Write Slave :
---------------------------------------
Name      Type              Size  Value
---------------------------------------
item      axis_transaction  -     @990 
  tdata   integral          32    'h0  
  tkeep   integral          4     'h0  
  tvalid  integral          1     'h0  
  tready  integral          1     'h1  
  tlast   integral          1     'h0  
---------------------------------------

UVM_INFO /home/xe-user106/10x-Engineers/SOC-DV/TCP/axi_dma_verification/verif/top/../stream_uvc/axis_read_monitor.sv(63) @ 1510000: uvm_test_top.env.axis_r_agt.monitor [axis_read_monitor] Transaction Collected from AXI-Stream Read Master :
---------------------------------------
Name      Type              Size  Value
---------------------------------------
item      axis_transaction  -     @996 
  tdata   integral          32    'h0  
  tkeep   integral          4     'h0  
  tvalid  integral          1     'h0  
  tready  integral          1     'h0  
  tlast   integral          1     'h0  
---------------------------------------

UVM_INFO /home/xe-user106/10x-Engineers/SOC-DV/TCP/axi_dma_verification/verif/top/../stream_uvc/axis_write_monitor.sv(63) @ 1550000: uvm_test_top.env.axis_wr_agt.monitor [axis_write_monitor] Transaction Collected from AXI-Stream Write Slave :
---------------------------------------
Name      Type              Size  Value
---------------------------------------
item      axis_transaction  -     @990 
  tdata   integral          32    'h0  
  tkeep   integral          4     'h0  
  tvalid  integral          1     'h0  
  tready  integral          1     'h1  
  tlast   integral          1     'h0  
---------------------------------------

UVM_INFO /home/xe-user106/10x-Engineers/SOC-DV/TCP/axi_dma_verification/verif/top/../stream_uvc/axis_read_monitor.sv(63) @ 1550000: uvm_test_top.env.axis_r_agt.monitor [axis_read_monitor] Transaction Collected from AXI-Stream Read Master :
---------------------------------------
Name      Type              Size  Value
---------------------------------------
item      axis_transaction  -     @996 
  tdata   integral          32    'h0  
  tkeep   integral          4     'h0  
  tvalid  integral          1     'h0  
  tready  integral          1     'h0  
  tlast   integral          1     'h0  
---------------------------------------

UVM_INFO /home/xe-user106/10x-Engineers/SOC-DV/TCP/axi_dma_verification/verif/top/../register_uvc/axi_lite_monitor.sv(75) @ 1550000: uvm_test_top.env.axi_lite_agt.monitor [axi_lite_monitor] Transaction Collected :
--------------------------------------------------
Name                  Type             Size  Value
--------------------------------------------------
item                  reg_transaction  -     @1002
  s_axi_lite_awvalid  integral         1     'h0  
  s_axi_lite_awready  integral         1     'h0  
  s_axi_lite_awaddr   integral         10    'h28 
  s_axi_lite_wvalid   integral         1     'h0  
  s_axi_lite_wready   integral         1     'h0  
  s_axi_lite_wdata    integral         32    'h64 
  s_axi_lite_bresp    integral         2     'h0  
  s_axi_lite_bvalid   integral         1     'h0  
  s_axi_lite_bready   integral         1     'h1  
  s_axi_lite_arvalid  integral         1     'h0  
  s_axi_lite_arready  integral         1     'h0  
  s_axi_lite_araddr   integral         10    'h4  
  s_axi_lite_rvalid   integral         1     'h0  
  s_axi_lite_rready   integral         1     'h0  
  s_axi_lite_rdata    integral         32    'h0  
  s_axi_lite_rresp    integral         2     'h0  
--------------------------------------------------

UVM_INFO /home/xe-user106/10x-Engineers/SOC-DV/TCP/axi_dma_verification/verif/top/../stream_uvc/axis_write_monitor.sv(63) @ 1590000: uvm_test_top.env.axis_wr_agt.monitor [axis_write_monitor] Transaction Collected from AXI-Stream Write Slave :
---------------------------------------
Name      Type              Size  Value
---------------------------------------
item      axis_transaction  -     @990 
  tdata   integral          32    'h0  
  tkeep   integral          4     'h0  
  tvalid  integral          1     'h0  
  tready  integral          1     'h1  
  tlast   integral          1     'h0  
---------------------------------------

UVM_INFO /home/xe-user106/10x-Engineers/SOC-DV/TCP/axi_dma_verification/verif/top/../stream_uvc/axis_read_monitor.sv(63) @ 1590000: uvm_test_top.env.axis_r_agt.monitor [axis_read_monitor] Transaction Collected from AXI-Stream Read Master :
---------------------------------------
Name      Type              Size  Value
---------------------------------------
item      axis_transaction  -     @996 
  tdata   integral          32    'h0  
  tkeep   integral          4     'h0  
  tvalid  integral          1     'h0  
  tready  integral          1     'h0  
  tlast   integral          1     'h0  
---------------------------------------

UVM_INFO /home/xe-user106/10x-Engineers/SOC-DV/TCP/axi_dma_verification/verif/top/../register_uvc/axi_lite_monitor.sv(75) @ 1610000: uvm_test_top.env.axi_lite_agt.monitor [axi_lite_monitor] Transaction Collected :
--------------------------------------------------
Name                  Type             Size  Value
--------------------------------------------------
item                  reg_transaction  -     @1002
  s_axi_lite_awvalid  integral         1     'h0  
  s_axi_lite_awready  integral         1     'h0  
  s_axi_lite_awaddr   integral         10    'h28 
  s_axi_lite_wvalid   integral         1     'h0  
  s_axi_lite_wready   integral         1     'h0  
  s_axi_lite_wdata    integral         32    'h64 
  s_axi_lite_bresp    integral         2     'h0  
  s_axi_lite_bvalid   integral         1     'h0  
  s_axi_lite_bready   integral         1     'h1  
  s_axi_lite_arvalid  integral         1     'h1  
  s_axi_lite_arready  integral         1     'h1  
  s_axi_lite_araddr   integral         10    'h18 
  s_axi_lite_rvalid   integral         1     'h0  
  s_axi_lite_rready   integral         1     'h0  
  s_axi_lite_rdata    integral         32    'h0  
  s_axi_lite_rresp    integral         2     'h0  
--------------------------------------------------

UVM_INFO /home/xe-user106/10x-Engineers/SOC-DV/TCP/axi_dma_verification/verif/top/../register_uvc/axi_lite_driver.sv(43) @ 1610000: uvm_test_top.env.axi_lite_agt.driver [uvm_test_top.env.axi_lite_agt.driver] Driver Started
UVM_INFO /home/xe-user106/10x-Engineers/SOC-DV/TCP/axi_dma_verification/verif/top/../stream_uvc/axis_write_monitor.sv(63) @ 1630000: uvm_test_top.env.axis_wr_agt.monitor [axis_write_monitor] Transaction Collected from AXI-Stream Write Slave :
---------------------------------------
Name      Type              Size  Value
---------------------------------------
item      axis_transaction  -     @990 
  tdata   integral          32    'h0  
  tkeep   integral          4     'h0  
  tvalid  integral          1     'h0  
  tready  integral          1     'h1  
  tlast   integral          1     'h0  
---------------------------------------

UVM_INFO /home/xe-user106/10x-Engineers/SOC-DV/TCP/axi_dma_verification/verif/top/../stream_uvc/axis_read_monitor.sv(63) @ 1630000: uvm_test_top.env.axis_r_agt.monitor [axis_read_monitor] Transaction Collected from AXI-Stream Read Master :
---------------------------------------
Name      Type              Size  Value
---------------------------------------
item      axis_transaction  -     @996 
  tdata   integral          32    'h0  
  tkeep   integral          4     'h0  
  tvalid  integral          1     'h0  
  tready  integral          1     'h0  
  tlast   integral          1     'h0  
---------------------------------------

UVM_INFO /home/xe-user106/10x-Engineers/SOC-DV/TCP/axi_dma_verification/verif/top/../stream_uvc/axis_write_monitor.sv(63) @ 1670000: uvm_test_top.env.axis_wr_agt.monitor [axis_write_monitor] Transaction Collected from AXI-Stream Write Slave :
---------------------------------------
Name      Type              Size  Value
---------------------------------------
item      axis_transaction  -     @990 
  tdata   integral          32    'h0  
  tkeep   integral          4     'h0  
  tvalid  integral          1     'h0  
  tready  integral          1     'h1  
  tlast   integral          1     'h0  
---------------------------------------

UVM_INFO /home/xe-user106/10x-Engineers/SOC-DV/TCP/axi_dma_verification/verif/top/../stream_uvc/axis_read_monitor.sv(63) @ 1670000: uvm_test_top.env.axis_r_agt.monitor [axis_read_monitor] Transaction Collected from AXI-Stream Read Master :
---------------------------------------
Name      Type              Size  Value
---------------------------------------
item      axis_transaction  -     @996 
  tdata   integral          32    'h0  
  tkeep   integral          4     'h0  
  tvalid  integral          1     'h0  
  tready  integral          1     'h0  
  tlast   integral          1     'h0  
---------------------------------------

UVM_INFO /home/xe-user106/10x-Engineers/SOC-DV/TCP/axi_dma_verification/verif/top/../register_uvc/axi_lite_monitor.sv(75) @ 1670000: uvm_test_top.env.axi_lite_agt.monitor [axi_lite_monitor] Transaction Collected :
---------------------------------------------------
Name                  Type             Size  Value 
---------------------------------------------------
item                  reg_transaction  -     @1002 
  s_axi_lite_awvalid  integral         1     'h0   
  s_axi_lite_awready  integral         1     'h0   
  s_axi_lite_awaddr   integral         10    'h28  
  s_axi_lite_wvalid   integral         1     'h0   
  s_axi_lite_wready   integral         1     'h0   
  s_axi_lite_wdata    integral         32    'h64  
  s_axi_lite_bresp    integral         2     'h0   
  s_axi_lite_bvalid   integral         1     'h0   
  s_axi_lite_bready   integral         1     'h1   
  s_axi_lite_arvalid  integral         1     'h0   
  s_axi_lite_arready  integral         1     'h0   
  s_axi_lite_araddr   integral         10    'h18  
  s_axi_lite_rvalid   integral         1     'h1   
  s_axi_lite_rready   integral         1     'h0   
  s_axi_lite_rdata    integral         32    'h1000
  s_axi_lite_rresp    integral         2     'h0   
---------------------------------------------------

UVM_INFO /home/xe-user106/10x-Engineers/SOC-DV/TCP/axi_dma_verification/verif/top/../stream_uvc/axis_write_monitor.sv(63) @ 1710000: uvm_test_top.env.axis_wr_agt.monitor [axis_write_monitor] Transaction Collected from AXI-Stream Write Slave :
---------------------------------------
Name      Type              Size  Value
---------------------------------------
item      axis_transaction  -     @990 
  tdata   integral          32    'h0  
  tkeep   integral          4     'h0  
  tvalid  integral          1     'h0  
  tready  integral          1     'h1  
  tlast   integral          1     'h0  
---------------------------------------

