#-----------------------------------------------------------
# xsim v2022.1 (64-bit)
# SW Build 3526262 on Mon Apr 18 15:47:01 MDT 2022
# IP Build 3524634 on Mon Apr 18 20:55:01 MDT 2022
# Start of session at: Sun Feb  2 13:08:24 2025
# Process ID: 393512
# Current directory: /home/xe-user106/10x-Engineers/SOC-DV/TCP/axi_dma_verification/rtl/axi_dma_verification_10xe_tcp/axi_dma_verification_10xe_tcp.sim/sim_1/behav/xsim
# Command line: xsim -log simulate.log -mode tcl -source {xsim.dir/axi_dma_tb_top_behav/xsim_script.tcl}
# Log file: /home/xe-user106/10x-Engineers/SOC-DV/TCP/axi_dma_verification/rtl/axi_dma_verification_10xe_tcp/axi_dma_verification_10xe_tcp.sim/sim_1/behav/xsim/simulate.log
# Journal file: /home/xe-user106/10x-Engineers/SOC-DV/TCP/axi_dma_verification/rtl/axi_dma_verification_10xe_tcp/axi_dma_verification_10xe_tcp.sim/sim_1/behav/xsim/xsim.jou
# Running On: noman-10x, OS: Linux, CPU Frequency: 400.000 MHz, CPU Physical cores: 12, Host memory: 16050 MB
#-----------------------------------------------------------
source xsim.dir/axi_dma_tb_top_behav/xsim_script.tcl
# xsim {axi_dma_tb_top_behav} -testplusarg UVM_TESTNAME=slave_error_test -view {{/home/xe-user106/10x-Engineers/SOC-DV/TCP/axi_dma_verification/rtl/axi_dma_verification_10xe_tcp/axi_dma_tb_top_behav.wcfg}} -tclbatch {axi_dma_tb_top.tcl} -key {Behavioral:sim_1:Functional:axi_dma_tb_top}
Time resolution is 1 ps
open_wave_config /home/xe-user106/10x-Engineers/SOC-DV/TCP/axi_dma_verification/rtl/axi_dma_verification_10xe_tcp/axi_dma_tb_top_behav.wcfg
source axi_dma_tb_top.tcl
## set curr_wave [current_wave_config]
## if { [string length $curr_wave] == 0 } {
##   if { [llength [get_objects]] > 0} {
##     add_wave /
##     set_property needs_save false [current_wave_config]
##   } else {
##      send_msg_id Add_Wave-1 WARNING "No top level signals found. Simulator will start without a wave window. If you want to open a wave window go to 'File->New Waveform Configuration' or type 'create_wave_config' in the TCL console."
##   }
## }
## run all
UVM_INFO /home/xe-user106/vivado/Vivado/2022.1/data/system_verilog/uvm_1.2/xlnx_uvm_package.sv(18601) @ 0: reporter [UVM/RELNOTES] 
      (Specify +UVM_NO_RELNOTES to turn off this notice)
  with `UVM_OBJECT_DO_NOT_NEED_CONSTRUCTOR undefined.

  You are using a version of the UVM library that has been compiled
  with `UVM_NO_DEPRECATED undefined.

  You are using a version of the UVM library that has been compiled

  ***********       IMPORTANT RELEASE NOTES         ************
----------------------------------------------------------------
(C) 2013-2014 NVIDIA Corporation
(C) 2011-2013 Cypress Semiconductor Corp.
(C) 2006-2014 Synopsys, Inc.
(C) 2007-2014 Cadence Design Systems, Inc.
(C) 2007-2014 Mentor Graphics Corporation


----------------------------------------------------------------

UVM_INFO /home/xe-user106/vivado/Vivado/2022.1/data/system_verilog/uvm_1.2/xlnx_uvm_package.sv(18648) @ 0: reporter [NO_DPI_TSTNAME] UVM_NO_DPI defined--getting UVM_TESTNAME directly, without DPI
UVM_INFO @ 0: reporter [RNTST] Running test slave_error_test...
Running ERROR_RESPONSE_TEST test
UVM_INFO /home/xe-user106/vivado/Vivado/2022.1/data/system_verilog/uvm_1.2/xlnx_uvm_package.sv(7061) @ 0: reporter [UVM/CONFIGDB/SPELLCHK] include_coverage not located, did you mean env_cfg
UVM_INFO /home/xe-user106/vivado/Vivado/2022.1/data/system_verilog/uvm_1.2/xlnx_uvm_package.sv(7061) @ 0: reporter [UVM/CONFIGDB/SPELLCHK] include_coverage not located, did you mean env_cfg
UVM_INFO /home/xe-user106/vivado/Vivado/2022.1/data/system_verilog/uvm_1.2/xlnx_uvm_package.sv(7061) @ 0: reporter [UVM/CONFIGDB/SPELLCHK] include_coverage not located, did you mean env_cfg
UVM_INFO /home/xe-user106/vivado/Vivado/2022.1/data/system_verilog/uvm_1.2/xlnx_uvm_package.sv(7061) @ 0: reporter [UVM/CONFIGDB/SPELLCHK] include_coverage not located, did you mean env_cfg
UVM_INFO /home/xe-user106/vivado/Vivado/2022.1/data/system_verilog/uvm_1.2/xlnx_uvm_package.sv(7061) @ 0: reporter [UVM/CONFIGDB/SPELLCHK] include_coverage not located, did you mean env_cfg
UVM_INFO /home/xe-user106/vivado/Vivado/2022.1/data/system_verilog/uvm_1.2/xlnx_uvm_package.sv(7061) @ 0: reporter [UVM/CONFIGDB/SPELLCHK] include_coverage not located, did you mean env_cfg
UVM_INFO /home/xe-user106/vivado/Vivado/2022.1/data/system_verilog/uvm_1.2/xlnx_uvm_package.sv(7061) @ 0: reporter [UVM/CONFIGDB/SPELLCHK] include_coverage not located, did you mean env_cfg
UVM_INFO /home/xe-user106/vivado/Vivado/2022.1/data/system_verilog/uvm_1.2/xlnx_uvm_package.sv(7061) @ 0: reporter [UVM/CONFIGDB/SPELLCHK] include_coverage not located, did you mean env_cfg
UVM_INFO /home/xe-user106/vivado/Vivado/2022.1/data/system_verilog/uvm_1.2/xlnx_uvm_package.sv(7061) @ 0: reporter [UVM/CONFIGDB/SPELLCHK] include_coverage not located, did you mean env_cfg
UVM_INFO /home/xe-user106/vivado/Vivado/2022.1/data/system_verilog/uvm_1.2/xlnx_uvm_package.sv(7061) @ 0: reporter [UVM/CONFIGDB/SPELLCHK] include_coverage not located, did you mean env_cfg
UVM_INFO /home/xe-user106/vivado/Vivado/2022.1/data/system_verilog/uvm_1.2/xlnx_uvm_package.sv(7061) @ 0: reporter [UVM/CONFIGDB/SPELLCHK] include_coverage not located, did you mean env_cfg
WARNING: Out of bounds value range in bin 'high_values' for Coverpoint 'cp_rdata' is converted to nearest valid bounded range of [65536:0].
WARNING: Out of bounds value range in bin 'high_values' for Coverpoint 'cp_wdata' is converted to nearest valid bounded range of [65536:0].
WARNING: Out of bounds value range in bin 'high_values' for Coverpoint 'cp_tdata' is converted to nearest valid bounded range of [65536:0].
UVM_INFO /home/xe-user106/vivado/Vivado/2022.1/data/system_verilog/uvm_1.2/xlnx_uvm_package.sv(18752) @ 0: reporter [UVMTOP] UVM testbench topology:
-------------------------------------------------------------------
Name                       Type                         Size  Value
-------------------------------------------------------------------
uvm_test_top               slave_error_test             -     @342 
  env                      environment                  -     @367 
    axi_lite_agt           axi_lite_agent               -     @407 
      driver               axi_lite_driver              -     @690 
        rsp_port           uvm_analysis_port            -     @709 
        seq_item_port      uvm_seq_item_pull_port       -     @699 
      monitor              axi_lite_monitor             -     @719 
        ap                 uvm_analysis_port            -     @867 
      sequencer            axi_lite_sequencer           -     @728 
        rsp_export         uvm_analysis_export          -     @737 
        seq_item_export    uvm_seq_item_pull_imp        -     @855 
        arbitration_queue  array                        0     -    
        lock_queue         array                        0     -    
        num_last_reqs      integral                     32    'd1  
        num_last_rsps      integral                     32    'd1  
    axi_lite_cov           axi_lite_coverage            -     @613 
      analysis_imp         uvm_analysis_imp             -     @622 
    axi_mon                axi_monitor                  -     @542 
      ap                   uvm_analysis_port            -     @883 
    axi_r_agt              mm2s_agent                   -     @551 
      driver               mm2s_driver                  -     @894 
        rsp_port           uvm_analysis_port            -     @913 
        seq_item_port      uvm_seq_item_pull_port       -     @903 
      monitor              mm2s_monitor                 -     @923 
      sequencer            uvm_sequencer                -     @932 
        rsp_export         uvm_analysis_export          -     @941 
        seq_item_export    uvm_seq_item_pull_imp        -     @1059
        arbitration_queue  array                        0     -    
        lock_queue         array                        0     -    
        num_last_reqs      integral                     32    'd1  
        num_last_rsps      integral                     32    'd1  
    axis_r_agt             axis_read_agent              -     @565 
      driver               axis_read_driver             -     @1078
        rsp_port           uvm_analysis_port            -     @1097
        seq_item_port      uvm_seq_item_pull_port       -     @1087
      monitor              axis_read_monitor            -     @1244
        mm2s_read          uvm_analysis_port            -     @1254
      sequencer            uvm_sequencer                -     @1107
        rsp_export         uvm_analysis_export          -     @1116
        seq_item_export    uvm_seq_item_pull_imp        -     @1234
        arbitration_queue  array                        0     -    
        lock_queue         array                        0     -    
        num_last_reqs      integral                     32    'd1  
        num_last_rsps      integral                     32    'd1  
    axis_read_cov          axis_read_coverage           -     @632 
      analysis_imp         uvm_analysis_imp             -     @641 
    axis_write_cov         axis_write_coverage          -     @651 
      analysis_imp         uvm_analysis_imp             -     @660 
    s2mm_introut_cov       s2mm_introut_coverage        -     @670 
      analysis_imp         uvm_analysis_imp             -     @679 
    sco                    scoreboard                   -     @574 
      axi_export           uvm_analysis_imp_axi         -     @603 
      read_export          uvm_analysis_imp_mm2s_read   -     @583 
      write_export         uvm_analysis_imp_s2mm_write  -     @593 
-------------------------------------------------------------------

UVM_INFO /home/xe-user106/vivado/Vivado/2022.1/data/system_verilog/uvm_1.2/xlnx_uvm_package.sv(20867) @ 0: reporter [UVM/COMP/NAMECHECK] This implementation of the component name checks requires DPI to be enabled
UVM_INFO /home/xe-user106/vivado/Vivado/2022.1/data/system_verilog/uvm_1.2/xlnx_uvm_package.sv(24209) @ 0: uvm_test_top.env.axi_lite_agt.sequencer [PHASESEQ] No default phase sequence for phase 'run'
UVM_INFO /home/xe-user106/vivado/Vivado/2022.1/data/system_verilog/uvm_1.2/xlnx_uvm_package.sv(24209) @ 0: uvm_test_top.env.axi_r_agt.sequencer [PHASESEQ] No default phase sequence for phase 'run'
UVM_INFO /home/xe-user106/vivado/Vivado/2022.1/data/system_verilog/uvm_1.2/xlnx_uvm_package.sv(24209) @ 0: uvm_test_top.env.axis_r_agt.sequencer [PHASESEQ] No default phase sequence for phase 'run'
UVM_INFO /home/xe-user106/10x-Engineers/SOC-DV/TCP/axi_dma_verification/verif/stream_uvc/axis_read_monitor.sv(46) @ 0: uvm_test_top.env.axis_r_agt.monitor [uvm_test_top.env.axis_r_agt.monitor] AXIS Read Monitor Started
UVM_INFO /home/xe-user106/10x-Engineers/SOC-DV/TCP/axi_dma_verification/verif/mm2s_uvc/mm2s_monitor.sv(46) @ 0: uvm_test_top.env.axi_r_agt.monitor [uvm_test_top.env.axi_r_agt.monitor] MM2S Read Monitor Started
UVM_INFO /home/xe-user106/10x-Engineers/SOC-DV/TCP/axi_dma_verification/verif/mm2s_uvc/mm2s_driver.sv(38) @ 0: uvm_test_top.env.axi_r_agt.driver [uvm_test_top.env.axi_r_agt.driver] MM2S Read Driver Started
UVM_INFO /home/xe-user106/10x-Engineers/SOC-DV/TCP/axi_dma_verification/verif/axi_coverage_monitor/axi_monitor.sv(49) @ 0: uvm_test_top.env.axi_mon [uvm_test_top.env.axi_mon] AXI Monitor Started
UVM_INFO /home/xe-user106/10x-Engineers/SOC-DV/TCP/axi_dma_verification/verif/register_uvc/axi_lite_monitor.sv(49) @ 0: uvm_test_top.env.axi_lite_agt.monitor [uvm_test_top.env.axi_lite_agt.monitor] Monitor Started
UVM_INFO /home/xe-user106/vivado/Vivado/2022.1/data/system_verilog/uvm_1.2/xlnx_uvm_package.sv(24209) @ 0: uvm_test_top.env.axi_lite_agt.sequencer [PHASESEQ] No default phase sequence for phase 'pre_reset'
UVM_INFO /home/xe-user106/vivado/Vivado/2022.1/data/system_verilog/uvm_1.2/xlnx_uvm_package.sv(24209) @ 0: uvm_test_top.env.axi_r_agt.sequencer [PHASESEQ] No default phase sequence for phase 'pre_reset'
UVM_INFO /home/xe-user106/vivado/Vivado/2022.1/data/system_verilog/uvm_1.2/xlnx_uvm_package.sv(24209) @ 0: uvm_test_top.env.axis_r_agt.sequencer [PHASESEQ] No default phase sequence for phase 'pre_reset'
UVM_INFO /home/xe-user106/vivado/Vivado/2022.1/data/system_verilog/uvm_1.2/xlnx_uvm_package.sv(24244) @ 0: uvm_test_top.env.axi_lite_agt.sequencer [PHASESEQ] No default sequence to kill for phase 'pre_reset'
UVM_INFO /home/xe-user106/vivado/Vivado/2022.1/data/system_verilog/uvm_1.2/xlnx_uvm_package.sv(24244) @ 0: uvm_test_top.env.axi_r_agt.sequencer [PHASESEQ] No default sequence to kill for phase 'pre_reset'
UVM_INFO /home/xe-user106/vivado/Vivado/2022.1/data/system_verilog/uvm_1.2/xlnx_uvm_package.sv(24244) @ 0: uvm_test_top.env.axis_r_agt.sequencer [PHASESEQ] No default sequence to kill for phase 'pre_reset'
UVM_INFO /home/xe-user106/vivado/Vivado/2022.1/data/system_verilog/uvm_1.2/xlnx_uvm_package.sv(24209) @ 0: uvm_test_top.env.axi_lite_agt.sequencer [PHASESEQ] No default phase sequence for phase 'reset'
UVM_INFO /home/xe-user106/vivado/Vivado/2022.1/data/system_verilog/uvm_1.2/xlnx_uvm_package.sv(24209) @ 0: uvm_test_top.env.axi_r_agt.sequencer [PHASESEQ] No default phase sequence for phase 'reset'
UVM_INFO /home/xe-user106/vivado/Vivado/2022.1/data/system_verilog/uvm_1.2/xlnx_uvm_package.sv(24209) @ 0: uvm_test_top.env.axis_r_agt.sequencer [PHASESEQ] No default phase sequence for phase 'reset'
Info: [XPM_MEMORY 20-1] MEMORY_PRIMITIVE (0) instructs Vivado Synthesis to choose the memory primitive type. Depending on their values, other XPM_MEMORY parameters may preclude the choice of certain memory primitive types. Review XPM_MEMORY documentation and parameter values to understand any limitations, or set MEMORY_PRIMITIVE to a different value. axi_dma_tb_top.DUT.U0.I_PRMRY_DATAMOVER.gen_s2mm_full.I_S2MM_FULL_WRAPPER.gen_enable_indet_btt_sf.I_INDET_BTT.I_XD_FIFO.non_blk_mem.I_SYNC_FIFOGEN_FIFO.xpm_fifo_instance.xpm_fifo_sync_inst.xpm_fifo_base_inst.\gen_sdpram.xpm_memory_base_inst .config_drc
Time: 1 ps  Iteration: 0  Process: /axi_dma_tb_top/DUT/U0/I_PRMRY_DATAMOVER/gen_s2mm_full/I_S2MM_FULL_WRAPPER/gen_enable_indet_btt_sf/I_INDET_BTT/I_XD_FIFO/non_blk_mem/I_SYNC_FIFOGEN_FIFO/xpm_fifo_instance/xpm_fifo_sync_inst/xpm_fifo_base_inst/gen_sdpram.xpm_memory_base_inst/Initial299_571  Scope: axi_dma_tb_top.DUT.U0.I_PRMRY_DATAMOVER.gen_s2mm_full.I_S2MM_FULL_WRAPPER.gen_enable_indet_btt_sf.I_INDET_BTT.I_XD_FIFO.non_blk_mem.I_SYNC_FIFOGEN_FIFO.xpm_fifo_instance.xpm_fifo_sync_inst.xpm_fifo_base_inst.\gen_sdpram.xpm_memory_base_inst .config_drc  File: /home/xe-user106/vivado/Vivado/2022.1/data/ip/xpm/xpm_memory/hdl/xpm_memory.sv Line: 493
UVM_INFO /home/xe-user106/10x-Engineers/SOC-DV/TCP/axi_dma_verification/verif/register_uvc/axi_lite_monitor.sv(79) @ 10000: uvm_test_top.env.axi_lite_agt.monitor [axi_lite_monitor] Transaction Collected :
--------------------------------------------------
Name                  Type             Size  Value
--------------------------------------------------
item                  reg_transaction  -     @1320
  s_axi_lite_awvalid  integral         1     'h0  
  s_axi_lite_awready  integral         1     'h0  
  s_axi_lite_awaddr   integral         10    'h0  
  s_axi_lite_wvalid   integral         1     'h0  
  s_axi_lite_wready   integral         1     'h0  
  s_axi_lite_wdata    integral         32    'h0  
  s_axi_lite_bresp    integral         2     'h0  
  s_axi_lite_bvalid   integral         1     'h0  
  s_axi_lite_bready   integral         1     'h0  
  s_axi_lite_arvalid  integral         1     'h0  
  s_axi_lite_arready  integral         1     'h0  
  s_axi_lite_araddr   integral         10    'h0  
  s_axi_lite_rvalid   integral         1     'h0  
  s_axi_lite_rready   integral         1     'h0  
  s_axi_lite_rdata    integral         32    'h0  
  s_axi_lite_rresp    integral         2     'h0  
--------------------------------------------------

UVM_INFO /home/xe-user106/10x-Engineers/SOC-DV/TCP/axi_dma_verification/verif/environment/coverage_model.sv(31) @ 10000: uvm_test_top.env.axi_lite_cov [\$unit_params_pkg_sv_891442008 .\axi_lite_coverage::write ] Recieved AXI Lite transaction in Coverage Model
UVM_INFO /home/xe-user106/10x-Engineers/SOC-DV/TCP/axi_dma_verification/verif/environment/coverage_model.sv(326) @ 10000: uvm_test_top.env.s2mm_introut_cov [\$unit_params_pkg_sv_891442008 .\s2mm_introut_coverage::write ] Recieved AXI transaction in Coverage Model
UVM_INFO /home/xe-user106/10x-Engineers/SOC-DV/TCP/axi_dma_verification/verif/axi_coverage_monitor/axi_monitor.sv(95) @ 10000: uvm_test_top.env.axi_mon [axi_monitor] Transaction Collected :
--------------------------------------------
Name            Type             Size  Value
--------------------------------------------
item            axi_transaction  -     @1314
  araddr        integral         32    'h0  
  arlen         integral         8     'h0  
  arsize        integral         3     'h0  
  arburst       integral         2     'h0  
  arprot        integral         3     'h0  
  arcache       integral         4     'h0  
  arvalid       integral         1     'h0  
  arready       integral         1     'h0  
  rdata         integral         32    'h0  
  rresp         integral         2     'h0  
  rlast         integral         1     'h0  
  rvalid        integral         1     'h0  
  rready        integral         1     'h0  
  awaddr        integral         32    'h0  
  awlen         integral         8     'h0  
  awsize        integral         3     'h0  
  awburst       integral         2     'h0  
  awprot        integral         3     'h0  
  awcache       integral         4     'h0  
  awvalid       integral         1     'h0  
  awready       integral         1     'h0  
  wdata         integral         32    'h0  
  wstrb         integral         4     'h0  
  wlast         integral         1     'h0  
  wvalid        integral         1     'h0  
  wready        integral         1     'h0  
  bvalid        integral         1     'h0  
  bready        integral         1     'h0  
  bresp         integral         2     'h0  
  s2mm_introut  integral         1     'h0  
--------------------------------------------

UVM_INFO /home/xe-user106/10x-Engineers/SOC-DV/TCP/axi_dma_verification/verif/mm2s_uvc/mm2s_monitor.sv(88) @ 10000: uvm_test_top.env.axi_r_agt.monitor [mm2s_monitor] Transaction Collected :
--------------------------------------------
Name            Type             Size  Value
--------------------------------------------
item            axi_transaction  -     @1306
  araddr        integral         32    'h0  
  arlen         integral         8     'h0  
  arsize        integral         3     'h0  
  arburst       integral         2     'h0  
  arprot        integral         3     'h0  
  arcache       integral         4     'h0  
  arvalid       integral         1     'h0  
  arready       integral         1     'h0  
  rdata         integral         32    'h0  
  rresp         integral         2     'h0  
  rlast         integral         1     'h0  
  rvalid        integral         1     'h0  
  rready        integral         1     'h0  
  awaddr        integral         32    'h0  
  awlen         integral         8     'h0  
  awsize        integral         3     'h0  
  awburst       integral         2     'h0  
  awprot        integral         3     'h0  
  awcache       integral         4     'h0  
  awvalid       integral         1     'h0  
  awready       integral         1     'h0  
  wdata         integral         32    'h0  
  wstrb         integral         4     'h0  
  wlast         integral         1     'h0  
  wvalid        integral         1     'h0  
  wready        integral         1     'h0  
  bvalid        integral         1     'h0  
  bready        integral         1     'h0  
  bresp         integral         2     'h0  
  s2mm_introut  integral         1     'h0  
--------------------------------------------

UVM_INFO /home/xe-user106/10x-Engineers/SOC-DV/TCP/axi_dma_verification/verif/stream_uvc/axis_read_monitor.sv(67) @ 10000: uvm_test_top.env.axis_r_agt.monitor [] ///////////////////////////////////////////////////////////////////////
UVM_INFO /home/xe-user106/10x-Engineers/SOC-DV/TCP/axi_dma_verification/verif/stream_uvc/axis_read_monitor.sv(68) @ 10000: uvm_test_top.env.axis_r_agt.monitor [] //                      MM2S READ Monitor                            //
UVM_INFO /home/xe-user106/10x-Engineers/SOC-DV/TCP/axi_dma_verification/verif/stream_uvc/axis_read_monitor.sv(69) @ 10000: uvm_test_top.env.axis_r_agt.monitor [] ///////////////////////////////////////////////////////////////////////
UVM_INFO /home/xe-user106/10x-Engineers/SOC-DV/TCP/axi_dma_verification/verif/stream_uvc/axis_read_monitor.sv(70) @ 10000: uvm_test_top.env.axis_r_agt.monitor [axis_read_monitor] Transaction Collected from AXI-Stream Read Master :
----------------------------------------
Name       Type              Size  Value
----------------------------------------
item       axis_transaction  -     @1300
  tdata    integral          32    'h0  
  tkeep    integral          4     'h0  
  tvalid   integral          1     'h0  
  tready   integral          1     'h0  
  tlast    integral          1     'h0  
  introut  integral          1     'h0  
----------------------------------------

UVM_INFO /home/xe-user106/10x-Engineers/SOC-DV/TCP/axi_dma_verification/verif/environment/coverage_model.sv(195) @ 10000: uvm_test_top.env.axis_read_cov [\$unit_params_pkg_sv_891442008 .\axis_read_coverage::write ] Recieved AXIS READ transaction in Coverage Model
UVM_INFO /home/xe-user106/10x-Engineers/SOC-DV/TCP/axi_dma_verification/verif/stream_uvc/axis_read_monitor.sv(67) @ 30000: uvm_test_top.env.axis_r_agt.monitor [] ///////////////////////////////////////////////////////////////////////
UVM_INFO /home/xe-user106/10x-Engineers/SOC-DV/TCP/axi_dma_verification/verif/stream_uvc/axis_read_monitor.sv(68) @ 30000: uvm_test_top.env.axis_r_agt.monitor [] //                      MM2S READ Monitor                            //
UVM_INFO /home/xe-user106/10x-Engineers/SOC-DV/TCP/axi_dma_verification/verif/stream_uvc/axis_read_monitor.sv(69) @ 30000: uvm_test_top.env.axis_r_agt.monitor [] ///////////////////////////////////////////////////////////////////////
UVM_INFO /home/xe-user106/10x-Engineers/SOC-DV/TCP/axi_dma_verification/verif/stream_uvc/axis_read_monitor.sv(70) @ 30000: uvm_test_top.env.axis_r_agt.monitor [axis_read_monitor] Transaction Collected from AXI-Stream Read Master :
----------------------------------------
Name       Type              Size  Value
----------------------------------------
item       axis_transaction  -     @1386
  tdata    integral          32    'h0  
  tkeep    integral          4     'h0  
  tvalid   integral          1     'h0  
  tready   integral          1     'h0  
  tlast    integral          1     'h0  
  introut  integral          1     'h0  
----------------------------------------

UVM_INFO /home/xe-user106/10x-Engineers/SOC-DV/TCP/axi_dma_verification/verif/environment/coverage_model.sv(195) @ 30000: uvm_test_top.env.axis_read_cov [\$unit_params_pkg_sv_891442008 .\axis_read_coverage::write ] Recieved AXIS READ transaction in Coverage Model
UVM_INFO /home/xe-user106/10x-Engineers/SOC-DV/TCP/axi_dma_verification/verif/mm2s_uvc/mm2s_monitor.sv(88) @ 30000: uvm_test_top.env.axi_r_agt.monitor [mm2s_monitor] Transaction Collected :
--------------------------------------------
Name            Type             Size  Value
--------------------------------------------
item            axi_transaction  -     @1306
  araddr        integral         32    'h0  
  arlen         integral         8     'h0  
  arsize        integral         3     'h0  
  arburst       integral         2     'h0  
  arprot        integral         3     'h0  
  arcache       integral         4     'h3  
  arvalid       integral         1     'h0  
  arready       integral         1     'h0  
  rdata         integral         32    'h0  
  rresp         integral         2     'h0  
  rlast         integral         1     'h0  
  rvalid        integral         1     'h0  
  rready        integral         1     'h0  
  awaddr        integral         32    'h0  
  awlen         integral         8     'h0  
  awsize        integral         3     'h0  
  awburst       integral         2     'h0  
  awprot        integral         3     'h0  
  awcache       integral         4     'h3  
  awvalid       integral         1     'h0  
  awready       integral         1     'h0  
  wdata         integral         32    'h0  
  wstrb         integral         4     'h0  
  wlast         integral         1     'h0  
  wvalid        integral         1     'h0  
  wready        integral         1     'h0  
  bvalid        integral         1     'h0  
  bready        integral         1     'h0  
  bresp         integral         2     'h0  
  s2mm_introut  integral         1     'h0  
--------------------------------------------

UVM_INFO /home/xe-user106/10x-Engineers/SOC-DV/TCP/axi_dma_verification/verif/environment/coverage_model.sv(326) @ 30000: uvm_test_top.env.s2mm_introut_cov [\$unit_params_pkg_sv_891442008 .\s2mm_introut_coverage::write ] Recieved AXI transaction in Coverage Model
UVM_INFO /home/xe-user106/10x-Engineers/SOC-DV/TCP/axi_dma_verification/verif/axi_coverage_monitor/axi_monitor.sv(95) @ 30000: uvm_test_top.env.axi_mon [axi_monitor] Transaction Collected :
--------------------------------------------
Name            Type             Size  Value
--------------------------------------------
item            axi_transaction  -     @1314
  araddr        integral         32    'h0  
  arlen         integral         8     'h0  
  arsize        integral         3     'h0  
  arburst       integral         2     'h0  
  arprot        integral         3     'h0  
  arcache       integral         4     'h3  
  arvalid       integral         1     'h0  
  arready       integral         1     'h0  
  rdata         integral         32    'h0  
  rresp         integral         2     'h0  
  rlast         integral         1     'h0  
  rvalid        integral         1     'h0  
  rready        integral         1     'h0  
  awaddr        integral         32    'h0  
  awlen         integral         8     'h0  
  awsize        integral         3     'h0  
  awburst       integral         2     'h0  
  awprot        integral         3     'h0  
  awcache       integral         4     'h3  
  awvalid       integral         1     'h0  
  awready       integral         1     'h0  
  wdata         integral         32    'h0  
  wstrb         integral         4     'h0  
  wlast         integral         1     'h0  
  wvalid        integral         1     'h0  
  wready        integral         1     'h0  
  bvalid        integral         1     'h0  
  bready        integral         1     'h0  
  bresp         integral         2     'h0  
  s2mm_introut  integral         1     'h0  
--------------------------------------------

UVM_INFO /home/xe-user106/10x-Engineers/SOC-DV/TCP/axi_dma_verification/verif/register_uvc/axi_lite_monitor.sv(79) @ 30000: uvm_test_top.env.axi_lite_agt.monitor [axi_lite_monitor] Transaction Collected :
--------------------------------------------------
Name                  Type             Size  Value
--------------------------------------------------
item                  reg_transaction  -     @1320
  s_axi_lite_awvalid  integral         1     'h0  
  s_axi_lite_awready  integral         1     'h0  
  s_axi_lite_awaddr   integral         10    'h0  
  s_axi_lite_wvalid   integral         1     'h0  
  s_axi_lite_wready   integral         1     'h0  
  s_axi_lite_wdata    integral         32    'h0  
  s_axi_lite_bresp    integral         2     'h0  
  s_axi_lite_bvalid   integral         1     'h0  
  s_axi_lite_bready   integral         1     'h0  
  s_axi_lite_arvalid  integral         1     'h0  
  s_axi_lite_arready  integral         1     'h0  
  s_axi_lite_araddr   integral         10    'h0  
  s_axi_lite_rvalid   integral         1     'h0  
  s_axi_lite_rready   integral         1     'h0  
  s_axi_lite_rdata    integral         32    'h0  
  s_axi_lite_rresp    integral         2     'h0  
--------------------------------------------------

UVM_INFO /home/xe-user106/10x-Engineers/SOC-DV/TCP/axi_dma_verification/verif/environment/coverage_model.sv(31) @ 30000: uvm_test_top.env.axi_lite_cov [\$unit_params_pkg_sv_891442008 .\axi_lite_coverage::write ] Recieved AXI Lite transaction in Coverage Model
UVM_INFO /home/xe-user106/10x-Engineers/SOC-DV/TCP/axi_dma_verification/verif/register_uvc/axi_lite_monitor.sv(79) @ 50000: uvm_test_top.env.axi_lite_agt.monitor [axi_lite_monitor] Transaction Collected :
--------------------------------------------------
Name                  Type             Size  Value
--------------------------------------------------
item                  reg_transaction  -     @1320
  s_axi_lite_awvalid  integral         1     'h0  
  s_axi_lite_awready  integral         1     'h0  
  s_axi_lite_awaddr   integral         10    'h0  
  s_axi_lite_wvalid   integral         1     'h0  
  s_axi_lite_wready   integral         1     'h0  
  s_axi_lite_wdata    integral         32    'h0  
  s_axi_lite_bresp    integral         2     'h0  
  s_axi_lite_bvalid   integral         1     'h0  
  s_axi_lite_bready   integral         1     'h0  
  s_axi_lite_arvalid  integral         1     'h0  
  s_axi_lite_arready  integral         1     'h0  
  s_axi_lite_araddr   integral         10    'h0  
  s_axi_lite_rvalid   integral         1     'h0  
  s_axi_lite_rready   integral         1     'h0  
  s_axi_lite_rdata    integral         32    'h0  
  s_axi_lite_rresp    integral         2     'h0  
--------------------------------------------------

UVM_INFO /home/xe-user106/10x-Engineers/SOC-DV/TCP/axi_dma_verification/verif/environment/coverage_model.sv(31) @ 50000: uvm_test_top.env.axi_lite_cov [\$unit_params_pkg_sv_891442008 .\axi_lite_coverage::write ] Recieved AXI Lite transaction in Coverage Model
UVM_INFO /home/xe-user106/10x-Engineers/SOC-DV/TCP/axi_dma_verification/verif/environment/coverage_model.sv(326) @ 50000: uvm_test_top.env.s2mm_introut_cov [\$unit_params_pkg_sv_891442008 .\s2mm_introut_coverage::write ] Recieved AXI transaction in Coverage Model
UVM_INFO /home/xe-user106/10x-Engineers/SOC-DV/TCP/axi_dma_verification/verif/axi_coverage_monitor/axi_monitor.sv(95) @ 50000: uvm_test_top.env.axi_mon [axi_monitor] Transaction Collected :
--------------------------------------------
Name            Type             Size  Value
--------------------------------------------
item            axi_transaction  -     @1314
  araddr        integral         32    'h0  
  arlen         integral         8     'h0  
  arsize        integral         3     'h0  
  arburst       integral         2     'h0  
  arprot        integral         3     'h0  
  arcache       integral         4     'h3  
  arvalid       integral         1     'h0  
  arready       integral         1     'h0  
  rdata         integral         32    'h0  
  rresp         integral         2     'h0  
  rlast         integral         1     'h0  
  rvalid        integral         1     'h0  
  rready        integral         1     'h0  
  awaddr        integral         32    'h0  
  awlen         integral         8     'h0  
  awsize        integral         3     'h0  
  awburst       integral         2     'h0  
  awprot        integral         3     'h0  
  awcache       integral         4     'h3  
  awvalid       integral         1     'h0  
  awready       integral         1     'h0  
  wdata         integral         32    'h0  
  wstrb         integral         4     'h0  
  wlast         integral         1     'h0  
  wvalid        integral         1     'h0  
  wready        integral         1     'h0  
  bvalid        integral         1     'h0  
  bready        integral         1     'h0  
  bresp         integral         2     'h0  
  s2mm_introut  integral         1     'h0  
--------------------------------------------

UVM_INFO /home/xe-user106/10x-Engineers/SOC-DV/TCP/axi_dma_verification/verif/mm2s_uvc/mm2s_monitor.sv(88) @ 50000: uvm_test_top.env.axi_r_agt.monitor [mm2s_monitor] Transaction Collected :
--------------------------------------------
Name            Type             Size  Value
--------------------------------------------
item            axi_transaction  -     @1306
  araddr        integral         32    'h0  
  arlen         integral         8     'h0  
  arsize        integral         3     'h0  
  arburst       integral         2     'h0  
  arprot        integral         3     'h0  
  arcache       integral         4     'h3  
  arvalid       integral         1     'h0  
  arready       integral         1     'h0  
  rdata         integral         32    'h0  
  rresp         integral         2     'h0  
  rlast         integral         1     'h0  
  rvalid        integral         1     'h0  
  rready        integral         1     'h0  
  awaddr        integral         32    'h0  
  awlen         integral         8     'h0  
  awsize        integral         3     'h0  
  awburst       integral         2     'h0  
  awprot        integral         3     'h0  
  awcache       integral         4     'h3  
  awvalid       integral         1     'h0  
  awready       integral         1     'h0  
  wdata         integral         32    'h0  
  wstrb         integral         4     'h0  
  wlast         integral         1     'h0  
  wvalid        integral         1     'h0  
  wready        integral         1     'h0  
  bvalid        integral         1     'h0  
  bready        integral         1     'h0  
  bresp         integral         2     'h0  
  s2mm_introut  integral         1     'h0  
--------------------------------------------

UVM_INFO /home/xe-user106/10x-Engineers/SOC-DV/TCP/axi_dma_verification/verif/stream_uvc/axis_read_monitor.sv(67) @ 50000: uvm_test_top.env.axis_r_agt.monitor [] ///////////////////////////////////////////////////////////////////////
UVM_INFO /home/xe-user106/10x-Engineers/SOC-DV/TCP/axi_dma_verification/verif/stream_uvc/axis_read_monitor.sv(68) @ 50000: uvm_test_top.env.axis_r_agt.monitor [] //                      MM2S READ Monitor                            //
UVM_INFO /home/xe-user106/10x-Engineers/SOC-DV/TCP/axi_dma_verification/verif/stream_uvc/axis_read_monitor.sv(69) @ 50000: uvm_test_top.env.axis_r_agt.monitor [] ///////////////////////////////////////////////////////////////////////
UVM_INFO /home/xe-user106/10x-Engineers/SOC-DV/TCP/axi_dma_verification/verif/stream_uvc/axis_read_monitor.sv(70) @ 50000: uvm_test_top.env.axis_r_agt.monitor [axis_read_monitor] Transaction Collected from AXI-Stream Read Master :
----------------------------------------
Name       Type              Size  Value
----------------------------------------
item       axis_transaction  -     @1400
  tdata    integral          32    'h0  
  tkeep    integral          4     'h0  
  tvalid   integral          1     'h0  
  tready   integral          1     'h0  
  tlast    integral          1     'h0  
  introut  integral          1     'h0  
----------------------------------------

UVM_INFO /home/xe-user106/10x-Engineers/SOC-DV/TCP/axi_dma_verification/verif/environment/coverage_model.sv(195) @ 50000: uvm_test_top.env.axis_read_cov [\$unit_params_pkg_sv_891442008 .\axis_read_coverage::write ] Recieved AXIS READ transaction in Coverage Model
UVM_INFO /home/xe-user106/10x-Engineers/SOC-DV/TCP/axi_dma_verification/verif/stream_uvc/axis_read_monitor.sv(67) @ 70000: uvm_test_top.env.axis_r_agt.monitor [] ///////////////////////////////////////////////////////////////////////
UVM_INFO /home/xe-user106/10x-Engineers/SOC-DV/TCP/axi_dma_verification/verif/stream_uvc/axis_read_monitor.sv(68) @ 70000: uvm_test_top.env.axis_r_agt.monitor [] //                      MM2S READ Monitor                            //
UVM_INFO /home/xe-user106/10x-Engineers/SOC-DV/TCP/axi_dma_verification/verif/stream_uvc/axis_read_monitor.sv(69) @ 70000: uvm_test_top.env.axis_r_agt.monitor [] ///////////////////////////////////////////////////////////////////////
UVM_INFO /home/xe-user106/10x-Engineers/SOC-DV/TCP/axi_dma_verification/verif/stream_uvc/axis_read_monitor.sv(70) @ 70000: uvm_test_top.env.axis_r_agt.monitor [axis_read_monitor] Transaction Collected from AXI-Stream Read Master :
----------------------------------------
Name       Type              Size  Value
----------------------------------------
item       axis_transaction  -     @1434
  tdata    integral          32    'h0  
  tkeep    integral          4     'h0  
  tvalid   integral          1     'h0  
  tready   integral          1     'h0  
  tlast    integral          1     'h0  
  introut  integral          1     'h0  
----------------------------------------

UVM_INFO /home/xe-user106/10x-Engineers/SOC-DV/TCP/axi_dma_verification/verif/environment/coverage_model.sv(195) @ 70000: uvm_test_top.env.axis_read_cov [\$unit_params_pkg_sv_891442008 .\axis_read_coverage::write ] Recieved AXIS READ transaction in Coverage Model
UVM_INFO /home/xe-user106/10x-Engineers/SOC-DV/TCP/axi_dma_verification/verif/mm2s_uvc/mm2s_monitor.sv(88) @ 70000: uvm_test_top.env.axi_r_agt.monitor [mm2s_monitor] Transaction Collected :
--------------------------------------------
Name            Type             Size  Value
--------------------------------------------
item            axi_transaction  -     @1306
  araddr        integral         32    'h0  
  arlen         integral         8     'h0  
  arsize        integral         3     'h0  
  arburst       integral         2     'h0  
  arprot        integral         3     'h0  
  arcache       integral         4     'h3  
  arvalid       integral         1     'h0  
  arready       integral         1     'h0  
  rdata         integral         32    'h0  
  rresp         integral         2     'h0  
  rlast         integral         1     'h0  
  rvalid        integral         1     'h0  
  rready        integral         1     'h0  
  awaddr        integral         32    'h0  
  awlen         integral         8     'h0  
  awsize        integral         3     'h0  
  awburst       integral         2     'h0  
  awprot        integral         3     'h0  
  awcache       integral         4     'h3  
  awvalid       integral         1     'h0  
  awready       integral         1     'h0  
  wdata         integral         32    'h0  
  wstrb         integral         4     'h0  
  wlast         integral         1     'h0  
  wvalid        integral         1     'h0  
  wready        integral         1     'h0  
  bvalid        integral         1     'h0  
  bready        integral         1     'h0  
  bresp         integral         2     'h0  
  s2mm_introut  integral         1     'h0  
--------------------------------------------

UVM_INFO /home/xe-user106/10x-Engineers/SOC-DV/TCP/axi_dma_verification/verif/environment/coverage_model.sv(326) @ 70000: uvm_test_top.env.s2mm_introut_cov [\$unit_params_pkg_sv_891442008 .\s2mm_introut_coverage::write ] Recieved AXI transaction in Coverage Model
UVM_INFO /home/xe-user106/10x-Engineers/SOC-DV/TCP/axi_dma_verification/verif/axi_coverage_monitor/axi_monitor.sv(95) @ 70000: uvm_test_top.env.axi_mon [axi_monitor] Transaction Collected :
--------------------------------------------
Name            Type             Size  Value
--------------------------------------------
item            axi_transaction  -     @1314
  araddr        integral         32    'h0  
  arlen         integral         8     'h0  
  arsize        integral         3     'h0  
  arburst       integral         2     'h0  
  arprot        integral         3     'h0  
  arcache       integral         4     'h3  
  arvalid       integral         1     'h0  
  arready       integral         1     'h0  
  rdata         integral         32    'h0  
  rresp         integral         2     'h0  
  rlast         integral         1     'h0  
  rvalid        integral         1     'h0  
  rready        integral         1     'h0  
  awaddr        integral         32    'h0  
  awlen         integral         8     'h0  
  awsize        integral         3     'h0  
  awburst       integral         2     'h0  
  awprot        integral         3     'h0  
  awcache       integral         4     'h3  
  awvalid       integral         1     'h0  
  awready       integral         1     'h0  
  wdata         integral         32    'h0  
  wstrb         integral         4     'h0  
  wlast         integral         1     'h0  
  wvalid        integral         1     'h0  
  wready        integral         1     'h0  
  bvalid        integral         1     'h0  
  bready        integral         1     'h0  
  bresp         integral         2     'h0  
  s2mm_introut  integral         1     'h0  
--------------------------------------------

UVM_INFO /home/xe-user106/10x-Engineers/SOC-DV/TCP/axi_dma_verification/verif/register_uvc/axi_lite_monitor.sv(79) @ 70000: uvm_test_top.env.axi_lite_agt.monitor [axi_lite_monitor] Transaction Collected :
--------------------------------------------------
Name                  Type             Size  Value
--------------------------------------------------
item                  reg_transaction  -     @1320
  s_axi_lite_awvalid  integral         1     'h0  
  s_axi_lite_awready  integral         1     'h0  
  s_axi_lite_awaddr   integral         10    'h0  
  s_axi_lite_wvalid   integral         1     'h0  
  s_axi_lite_wready   integral         1     'h0  
  s_axi_lite_wdata    integral         32    'h0  
  s_axi_lite_bresp    integral         2     'h0  
  s_axi_lite_bvalid   integral         1     'h0  
  s_axi_lite_bready   integral         1     'h0  
  s_axi_lite_arvalid  integral         1     'h0  
  s_axi_lite_arready  integral         1     'h0  
  s_axi_lite_araddr   integral         10    'h0  
  s_axi_lite_rvalid   integral         1     'h0  
  s_axi_lite_rready   integral         1     'h0  
  s_axi_lite_rdata    integral         32    'h0  
  s_axi_lite_rresp    integral         2     'h0  
--------------------------------------------------

UVM_INFO /home/xe-user106/10x-Engineers/SOC-DV/TCP/axi_dma_verification/verif/environment/coverage_model.sv(31) @ 70000: uvm_test_top.env.axi_lite_cov [\$unit_params_pkg_sv_891442008 .\axi_lite_coverage::write ] Recieved AXI Lite transaction in Coverage Model
UVM_INFO /home/xe-user106/10x-Engineers/SOC-DV/TCP/axi_dma_verification/verif/register_uvc/axi_lite_monitor.sv(79) @ 90000: uvm_test_top.env.axi_lite_agt.monitor [axi_lite_monitor] Transaction Collected :
--------------------------------------------------
Name                  Type             Size  Value
--------------------------------------------------
item                  reg_transaction  -     @1320
  s_axi_lite_awvalid  integral         1     'h0  
  s_axi_lite_awready  integral         1     'h0  
  s_axi_lite_awaddr   integral         10    'h0  
  s_axi_lite_wvalid   integral         1     'h0  
  s_axi_lite_wready   integral         1     'h0  
  s_axi_lite_wdata    integral         32    'h0  
  s_axi_lite_bresp    integral         2     'h0  
  s_axi_lite_bvalid   integral         1     'h0  
  s_axi_lite_bready   integral         1     'h0  
  s_axi_lite_arvalid  integral         1     'h0  
  s_axi_lite_arready  integral         1     'h0  
  s_axi_lite_araddr   integral         10    'h0  
  s_axi_lite_rvalid   integral         1     'h0  
  s_axi_lite_rready   integral         1     'h0  
  s_axi_lite_rdata    integral         32    'h0  
  s_axi_lite_rresp    integral         2     'h0  
--------------------------------------------------

UVM_INFO /home/xe-user106/10x-Engineers/SOC-DV/TCP/axi_dma_verification/verif/environment/coverage_model.sv(31) @ 90000: uvm_test_top.env.axi_lite_cov [\$unit_params_pkg_sv_891442008 .\axi_lite_coverage::write ] Recieved AXI Lite transaction in Coverage Model
UVM_INFO /home/xe-user106/10x-Engineers/SOC-DV/TCP/axi_dma_verification/verif/environment/coverage_model.sv(326) @ 90000: uvm_test_top.env.s2mm_introut_cov [\$unit_params_pkg_sv_891442008 .\s2mm_introut_coverage::write ] Recieved AXI transaction in Coverage Model
UVM_INFO /home/xe-user106/10x-Engineers/SOC-DV/TCP/axi_dma_verification/verif/axi_coverage_monitor/axi_monitor.sv(95) @ 90000: uvm_test_top.env.axi_mon [axi_monitor] Transaction Collected :
--------------------------------------------
Name            Type             Size  Value
--------------------------------------------
item            axi_transaction  -     @1314
  araddr        integral         32    'h0  
  arlen         integral         8     'h0  
  arsize        integral         3     'h0  
  arburst       integral         2     'h0  
  arprot        integral         3     'h0  
  arcache       integral         4     'h3  
  arvalid       integral         1     'h0  
  arready       integral         1     'h0  
  rdata         integral         32    'h0  
  rresp         integral         2     'h0  
  rlast         integral         1     'h0  
  rvalid        integral         1     'h0  
  rready        integral         1     'h0  
  awaddr        integral         32    'h0  
  awlen         integral         8     'h0  
  awsize        integral         3     'h0  
  awburst       integral         2     'h0  
  awprot        integral         3     'h0  
  awcache       integral         4     'h3  
  awvalid       integral         1     'h0  
  awready       integral         1     'h0  
  wdata         integral         32    'h0  
  wstrb         integral         4     'h0  
  wlast         integral         1     'h0  
  wvalid        integral         1     'h0  
  wready        integral         1     'h0  
  bvalid        integral         1     'h0  
  bready        integral         1     'h0  
  bresp         integral         2     'h0  
  s2mm_introut  integral         1     'h0  
--------------------------------------------

UVM_INFO /home/xe-user106/10x-Engineers/SOC-DV/TCP/axi_dma_verification/verif/mm2s_uvc/mm2s_monitor.sv(88) @ 90000: uvm_test_top.env.axi_r_agt.monitor [mm2s_monitor] Transaction Collected :
--------------------------------------------
Name            Type             Size  Value
--------------------------------------------
item            axi_transaction  -     @1306
  araddr        integral         32    'h0  
  arlen         integral         8     'h0  
  arsize        integral         3     'h0  
  arburst       integral         2     'h0  
  arprot        integral         3     'h0  
  arcache       integral         4     'h3  
  arvalid       integral         1     'h0  
  arready       integral         1     'h0  
  rdata         integral         32    'h0  
  rresp         integral         2     'h0  
  rlast         integral         1     'h0  
  rvalid        integral         1     'h0  
  rready        integral         1     'h0  
  awaddr        integral         32    'h0  
  awlen         integral         8     'h0  
  awsize        integral         3     'h0  
  awburst       integral         2     'h0  
  awprot        integral         3     'h0  
  awcache       integral         4     'h3  
  awvalid       integral         1     'h0  
  awready       integral         1     'h0  
  wdata         integral         32    'h0  
  wstrb         integral         4     'h0  
  wlast         integral         1     'h0  
  wvalid        integral         1     'h0  
  wready        integral         1     'h0  
  bvalid        integral         1     'h0  
  bready        integral         1     'h0  
  bresp         integral         2     'h0  
  s2mm_introut  integral         1     'h0  
--------------------------------------------

UVM_INFO /home/xe-user106/10x-Engineers/SOC-DV/TCP/axi_dma_verification/verif/stream_uvc/axis_read_monitor.sv(67) @ 90000: uvm_test_top.env.axis_r_agt.monitor [] ///////////////////////////////////////////////////////////////////////
UVM_INFO /home/xe-user106/10x-Engineers/SOC-DV/TCP/axi_dma_verification/verif/stream_uvc/axis_read_monitor.sv(68) @ 90000: uvm_test_top.env.axis_r_agt.monitor [] //                      MM2S READ Monitor                            //
UVM_INFO /home/xe-user106/10x-Engineers/SOC-DV/TCP/axi_dma_verification/verif/stream_uvc/axis_read_monitor.sv(69) @ 90000: uvm_test_top.env.axis_r_agt.monitor [] ///////////////////////////////////////////////////////////////////////
UVM_INFO /home/xe-user106/10x-Engineers/SOC-DV/TCP/axi_dma_verification/verif/stream_uvc/axis_read_monitor.sv(70) @ 90000: uvm_test_top.env.axis_r_agt.monitor [axis_read_monitor] Transaction Collected from AXI-Stream Read Master :
----------------------------------------
Name       Type              Size  Value
----------------------------------------
item       axis_transaction  -     @1448
  tdata    integral          32    'h0  
  tkeep    integral          4     'h0  
  tvalid   integral          1     'h0  
  tready   integral          1     'h0  
  tlast    integral          1     'h0  
  introut  integral          1     'h0  
----------------------------------------

UVM_INFO /home/xe-user106/10x-Engineers/SOC-DV/TCP/axi_dma_verification/verif/environment/coverage_model.sv(195) @ 90000: uvm_test_top.env.axis_read_cov [\$unit_params_pkg_sv_891442008 .\axis_read_coverage::write ] Recieved AXIS READ transaction in Coverage Model
UVM_INFO /home/xe-user106/10x-Engineers/SOC-DV/TCP/axi_dma_verification/verif/stream_uvc/axis_read_monitor.sv(67) @ 110000: uvm_test_top.env.axis_r_agt.monitor [] ///////////////////////////////////////////////////////////////////////
UVM_INFO /home/xe-user106/10x-Engineers/SOC-DV/TCP/axi_dma_verification/verif/stream_uvc/axis_read_monitor.sv(68) @ 110000: uvm_test_top.env.axis_r_agt.monitor [] //                      MM2S READ Monitor                            //
UVM_INFO /home/xe-user106/10x-Engineers/SOC-DV/TCP/axi_dma_verification/verif/stream_uvc/axis_read_monitor.sv(69) @ 110000: uvm_test_top.env.axis_r_agt.monitor [] ///////////////////////////////////////////////////////////////////////
UVM_INFO /home/xe-user106/10x-Engineers/SOC-DV/TCP/axi_dma_verification/verif/stream_uvc/axis_read_monitor.sv(70) @ 110000: uvm_test_top.env.axis_r_agt.monitor [axis_read_monitor] Transaction Collected from AXI-Stream Read Master :
----------------------------------------
Name       Type              Size  Value
----------------------------------------
item       axis_transaction  -     @1482
  tdata    integral          32    'h0  
  tkeep    integral          4     'h0  
  tvalid   integral          1     'h0  
  tready   integral          1     'h0  
  tlast    integral          1     'h0  
  introut  integral          1     'h0  
----------------------------------------

UVM_INFO /home/xe-user106/10x-Engineers/SOC-DV/TCP/axi_dma_verification/verif/environment/coverage_model.sv(195) @ 110000: uvm_test_top.env.axis_read_cov [\$unit_params_pkg_sv_891442008 .\axis_read_coverage::write ] Recieved AXIS READ transaction in Coverage Model
UVM_INFO /home/xe-user106/10x-Engineers/SOC-DV/TCP/axi_dma_verification/verif/mm2s_uvc/mm2s_monitor.sv(88) @ 110000: uvm_test_top.env.axi_r_agt.monitor [mm2s_monitor] Transaction Collected :
--------------------------------------------
Name            Type             Size  Value
--------------------------------------------
item            axi_transaction  -     @1306
  araddr        integral         32    'h0  
  arlen         integral         8     'h0  
  arsize        integral         3     'h0  
  arburst       integral         2     'h0  
  arprot        integral         3     'h0  
  arcache       integral         4     'h3  
  arvalid       integral         1     'h0  
  arready       integral         1     'h0  
  rdata         integral         32    'h0  
  rresp         integral         2     'h0  
  rlast         integral         1     'h0  
  rvalid        integral         1     'h0  
  rready        integral         1     'h0  
  awaddr        integral         32    'h0  
  awlen         integral         8     'h0  
  awsize        integral         3     'h0  
  awburst       integral         2     'h0  
  awprot        integral         3     'h0  
  awcache       integral         4     'h3  
  awvalid       integral         1     'h0  
  awready       integral         1     'h0  
  wdata         integral         32    'h0  
  wstrb         integral         4     'h0  
  wlast         integral         1     'h0  
  wvalid        integral         1     'h0  
  wready        integral         1     'h0  
  bvalid        integral         1     'h0  
  bready        integral         1     'h0  
  bresp         integral         2     'h0  
  s2mm_introut  integral         1     'h0  
--------------------------------------------

UVM_INFO /home/xe-user106/10x-Engineers/SOC-DV/TCP/axi_dma_verification/verif/environment/coverage_model.sv(326) @ 110000: uvm_test_top.env.s2mm_introut_cov [\$unit_params_pkg_sv_891442008 .\s2mm_introut_coverage::write ] Recieved AXI transaction in Coverage Model
UVM_INFO /home/xe-user106/10x-Engineers/SOC-DV/TCP/axi_dma_verification/verif/axi_coverage_monitor/axi_monitor.sv(95) @ 110000: uvm_test_top.env.axi_mon [axi_monitor] Transaction Collected :
--------------------------------------------
Name            Type             Size  Value
--------------------------------------------
item            axi_transaction  -     @1314
  araddr        integral         32    'h0  
  arlen         integral         8     'h0  
  arsize        integral         3     'h0  
  arburst       integral         2     'h0  
  arprot        integral         3     'h0  
  arcache       integral         4     'h3  
  arvalid       integral         1     'h0  
  arready       integral         1     'h0  
  rdata         integral         32    'h0  
  rresp         integral         2     'h0  
  rlast         integral         1     'h0  
  rvalid        integral         1     'h0  
  rready        integral         1     'h0  
  awaddr        integral         32    'h0  
  awlen         integral         8     'h0  
  awsize        integral         3     'h0  
  awburst       integral         2     'h0  
  awprot        integral         3     'h0  
  awcache       integral         4     'h3  
  awvalid       integral         1     'h0  
  awready       integral         1     'h0  
  wdata         integral         32    'h0  
  wstrb         integral         4     'h0  
  wlast         integral         1     'h0  
  wvalid        integral         1     'h0  
  wready        integral         1     'h0  
  bvalid        integral         1     'h0  
  bready        integral         1     'h0  
  bresp         integral         2     'h0  
  s2mm_introut  integral         1     'h0  
--------------------------------------------

UVM_INFO /home/xe-user106/10x-Engineers/SOC-DV/TCP/axi_dma_verification/verif/register_uvc/axi_lite_monitor.sv(79) @ 110000: uvm_test_top.env.axi_lite_agt.monitor [axi_lite_monitor] Transaction Collected :
--------------------------------------------------
Name                  Type             Size  Value
--------------------------------------------------
item                  reg_transaction  -     @1320
  s_axi_lite_awvalid  integral         1     'h0  
  s_axi_lite_awready  integral         1     'h0  
  s_axi_lite_awaddr   integral         10    'h0  
  s_axi_lite_wvalid   integral         1     'h0  
  s_axi_lite_wready   integral         1     'h0  
  s_axi_lite_wdata    integral         32    'h0  
  s_axi_lite_bresp    integral         2     'h0  
  s_axi_lite_bvalid   integral         1     'h0  
  s_axi_lite_bready   integral         1     'h0  
  s_axi_lite_arvalid  integral         1     'h0  
  s_axi_lite_arready  integral         1     'h0  
  s_axi_lite_araddr   integral         10    'h0  
  s_axi_lite_rvalid   integral         1     'h0  
  s_axi_lite_rready   integral         1     'h0  
  s_axi_lite_rdata    integral         32    'h0  
  s_axi_lite_rresp    integral         2     'h0  
--------------------------------------------------

UVM_INFO /home/xe-user106/10x-Engineers/SOC-DV/TCP/axi_dma_verification/verif/environment/coverage_model.sv(31) @ 110000: uvm_test_top.env.axi_lite_cov [\$unit_params_pkg_sv_891442008 .\axi_lite_coverage::write ] Recieved AXI Lite transaction in Coverage Model
UVM_INFO /home/xe-user106/10x-Engineers/SOC-DV/TCP/axi_dma_verification/verif/register_uvc/axi_lite_monitor.sv(79) @ 130000: uvm_test_top.env.axi_lite_agt.monitor [axi_lite_monitor] Transaction Collected :
--------------------------------------------------
Name                  Type             Size  Value
--------------------------------------------------
item                  reg_transaction  -     @1320
  s_axi_lite_awvalid  integral         1     'h0  
  s_axi_lite_awready  integral         1     'h0  
  s_axi_lite_awaddr   integral         10    'h0  
  s_axi_lite_wvalid   integral         1     'h0  
  s_axi_lite_wready   integral         1     'h0  
  s_axi_lite_wdata    integral         32    'h0  
  s_axi_lite_bresp    integral         2     'h0  
  s_axi_lite_bvalid   integral         1     'h0  
  s_axi_lite_bready   integral         1     'h0  
  s_axi_lite_arvalid  integral         1     'h0  
  s_axi_lite_arready  integral         1     'h0  
  s_axi_lite_araddr   integral         10    'h0  
  s_axi_lite_rvalid   integral         1     'h0  
  s_axi_lite_rready   integral         1     'h0  
  s_axi_lite_rdata    integral         32    'h0  
  s_axi_lite_rresp    integral         2     'h0  
--------------------------------------------------

UVM_INFO /home/xe-user106/10x-Engineers/SOC-DV/TCP/axi_dma_verification/verif/environment/coverage_model.sv(31) @ 130000: uvm_test_top.env.axi_lite_cov [\$unit_params_pkg_sv_891442008 .\axi_lite_coverage::write ] Recieved AXI Lite transaction in Coverage Model
UVM_INFO /home/xe-user106/10x-Engineers/SOC-DV/TCP/axi_dma_verification/verif/environment/coverage_model.sv(326) @ 130000: uvm_test_top.env.s2mm_introut_cov [\$unit_params_pkg_sv_891442008 .\s2mm_introut_coverage::write ] Recieved AXI transaction in Coverage Model
UVM_INFO /home/xe-user106/10x-Engineers/SOC-DV/TCP/axi_dma_verification/verif/axi_coverage_monitor/axi_monitor.sv(95) @ 130000: uvm_test_top.env.axi_mon [axi_monitor] Transaction Collected :
--------------------------------------------
Name            Type             Size  Value
--------------------------------------------
item            axi_transaction  -     @1314
  araddr        integral         32    'h0  
  arlen         integral         8     'h0  
  arsize        integral         3     'h0  
  arburst       integral         2     'h0  
  arprot        integral         3     'h0  
  arcache       integral         4     'h3  
  arvalid       integral         1     'h0  
  arready       integral         1     'h0  
  rdata         integral         32    'h0  
  rresp         integral         2     'h0  
  rlast         integral         1     'h0  
  rvalid        integral         1     'h0  
  rready        integral         1     'h0  
  awaddr        integral         32    'h0  
  awlen         integral         8     'h0  
  awsize        integral         3     'h0  
  awburst       integral         2     'h0  
  awprot        integral         3     'h0  
  awcache       integral         4     'h3  
  awvalid       integral         1     'h0  
  awready       integral         1     'h0  
  wdata         integral         32    'h0  
  wstrb         integral         4     'h0  
  wlast         integral         1     'h0  
  wvalid        integral         1     'h0  
  wready        integral         1     'h0  
  bvalid        integral         1     'h0  
  bready        integral         1     'h0  
  bresp         integral         2     'h0  
  s2mm_introut  integral         1     'h0  
--------------------------------------------

UVM_INFO /home/xe-user106/10x-Engineers/SOC-DV/TCP/axi_dma_verification/verif/mm2s_uvc/mm2s_monitor.sv(88) @ 130000: uvm_test_top.env.axi_r_agt.monitor [mm2s_monitor] Transaction Collected :
--------------------------------------------
Name            Type             Size  Value
--------------------------------------------
item            axi_transaction  -     @1306
  araddr        integral         32    'h0  
  arlen         integral         8     'h0  
  arsize        integral         3     'h0  
  arburst       integral         2     'h0  
  arprot        integral         3     'h0  
  arcache       integral         4     'h3  
  arvalid       integral         1     'h0  
  arready       integral         1     'h0  
  rdata         integral         32    'h0  
  rresp         integral         2     'h0  
  rlast         integral         1     'h0  
  rvalid        integral         1     'h0  
  rready        integral         1     'h0  
  awaddr        integral         32    'h0  
  awlen         integral         8     'h0  
  awsize        integral         3     'h0  
  awburst       integral         2     'h0  
  awprot        integral         3     'h0  
  awcache       integral         4     'h3  
  awvalid       integral         1     'h0  
  awready       integral         1     'h0  
  wdata         integral         32    'h0  
  wstrb         integral         4     'h0  
  wlast         integral         1     'h0  
  wvalid        integral         1     'h0  
  wready        integral         1     'h0  
  bvalid        integral         1     'h0  
  bready        integral         1     'h0  
  bresp         integral         2     'h0  
  s2mm_introut  integral         1     'h0  
--------------------------------------------

UVM_INFO /home/xe-user106/10x-Engineers/SOC-DV/TCP/axi_dma_verification/verif/stream_uvc/axis_read_monitor.sv(67) @ 130000: uvm_test_top.env.axis_r_agt.monitor [] ///////////////////////////////////////////////////////////////////////
UVM_INFO /home/xe-user106/10x-Engineers/SOC-DV/TCP/axi_dma_verification/verif/stream_uvc/axis_read_monitor.sv(68) @ 130000: uvm_test_top.env.axis_r_agt.monitor [] //                      MM2S READ Monitor                            //
UVM_INFO /home/xe-user106/10x-Engineers/SOC-DV/TCP/axi_dma_verification/verif/stream_uvc/axis_read_monitor.sv(69) @ 130000: uvm_test_top.env.axis_r_agt.monitor [] ///////////////////////////////////////////////////////////////////////
UVM_INFO /home/xe-user106/10x-Engineers/SOC-DV/TCP/axi_dma_verification/verif/stream_uvc/axis_read_monitor.sv(70) @ 130000: uvm_test_top.env.axis_r_agt.monitor [axis_read_monitor] Transaction Collected from AXI-Stream Read Master :
----------------------------------------
Name       Type              Size  Value
----------------------------------------
item       axis_transaction  -     @1496
  tdata    integral          32    'h0  
  tkeep    integral          4     'h0  
  tvalid   integral          1     'h0  
  tready   integral          1     'h0  
  tlast    integral          1     'h0  
  introut  integral          1     'h0  
----------------------------------------

UVM_INFO /home/xe-user106/10x-Engineers/SOC-DV/TCP/axi_dma_verification/verif/environment/coverage_model.sv(195) @ 130000: uvm_test_top.env.axis_read_cov [\$unit_params_pkg_sv_891442008 .\axis_read_coverage::write ] Recieved AXIS READ transaction in Coverage Model
UVM_INFO /home/xe-user106/10x-Engineers/SOC-DV/TCP/axi_dma_verification/verif/stream_uvc/axis_read_monitor.sv(67) @ 150000: uvm_test_top.env.axis_r_agt.monitor [] ///////////////////////////////////////////////////////////////////////
UVM_INFO /home/xe-user106/10x-Engineers/SOC-DV/TCP/axi_dma_verification/verif/stream_uvc/axis_read_monitor.sv(68) @ 150000: uvm_test_top.env.axis_r_agt.monitor [] //                      MM2S READ Monitor                            //
UVM_INFO /home/xe-user106/10x-Engineers/SOC-DV/TCP/axi_dma_verification/verif/stream_uvc/axis_read_monitor.sv(69) @ 150000: uvm_test_top.env.axis_r_agt.monitor [] ///////////////////////////////////////////////////////////////////////
UVM_INFO /home/xe-user106/10x-Engineers/SOC-DV/TCP/axi_dma_verification/verif/stream_uvc/axis_read_monitor.sv(70) @ 150000: uvm_test_top.env.axis_r_agt.monitor [axis_read_monitor] Transaction Collected from AXI-Stream Read Master :
----------------------------------------
Name       Type              Size  Value
----------------------------------------
item       axis_transaction  -     @1530
  tdata    integral          32    'h0  
  tkeep    integral          4     'h0  
  tvalid   integral          1     'h0  
  tready   integral          1     'h0  
  tlast    integral          1     'h0  
  introut  integral          1     'h0  
----------------------------------------

UVM_INFO /home/xe-user106/10x-Engineers/SOC-DV/TCP/axi_dma_verification/verif/environment/coverage_model.sv(195) @ 150000: uvm_test_top.env.axis_read_cov [\$unit_params_pkg_sv_891442008 .\axis_read_coverage::write ] Recieved AXIS READ transaction in Coverage Model
UVM_INFO /home/xe-user106/10x-Engineers/SOC-DV/TCP/axi_dma_verification/verif/mm2s_uvc/mm2s_monitor.sv(88) @ 150000: uvm_test_top.env.axi_r_agt.monitor [mm2s_monitor] Transaction Collected :
--------------------------------------------
Name            Type             Size  Value
--------------------------------------------
item            axi_transaction  -     @1306
  araddr        integral         32    'h0  
  arlen         integral         8     'h0  
  arsize        integral         3     'h0  
  arburst       integral         2     'h0  
  arprot        integral         3     'h0  
  arcache       integral         4     'h3  
  arvalid       integral         1     'h0  
  arready       integral         1     'h0  
  rdata         integral         32    'h0  
  rresp         integral         2     'h0  
  rlast         integral         1     'h0  
  rvalid        integral         1     'h0  
  rready        integral         1     'h0  
  awaddr        integral         32    'h0  
  awlen         integral         8     'h0  
  awsize        integral         3     'h0  
  awburst       integral         2     'h0  
  awprot        integral         3     'h0  
  awcache       integral         4     'h3  
  awvalid       integral         1     'h0  
  awready       integral         1     'h0  
  wdata         integral         32    'h0  
  wstrb         integral         4     'h0  
  wlast         integral         1     'h0  
  wvalid        integral         1     'h0  
  wready        integral         1     'h0  
  bvalid        integral         1     'h0  
  bready        integral         1     'h0  
  bresp         integral         2     'h0  
  s2mm_introut  integral         1     'h0  
--------------------------------------------

UVM_INFO /home/xe-user106/10x-Engineers/SOC-DV/TCP/axi_dma_verification/verif/environment/coverage_model.sv(326) @ 150000: uvm_test_top.env.s2mm_introut_cov [\$unit_params_pkg_sv_891442008 .\s2mm_introut_coverage::write ] Recieved AXI transaction in Coverage Model
UVM_INFO /home/xe-user106/10x-Engineers/SOC-DV/TCP/axi_dma_verification/verif/axi_coverage_monitor/axi_monitor.sv(95) @ 150000: uvm_test_top.env.axi_mon [axi_monitor] Transaction Collected :
--------------------------------------------
Name            Type             Size  Value
--------------------------------------------
item            axi_transaction  -     @1314
  araddr        integral         32    'h0  
  arlen         integral         8     'h0  
  arsize        integral         3     'h0  
  arburst       integral         2     'h0  
  arprot        integral         3     'h0  
  arcache       integral         4     'h3  
  arvalid       integral         1     'h0  
  arready       integral         1     'h0  
  rdata         integral         32    'h0  
  rresp         integral         2     'h0  
  rlast         integral         1     'h0  
  rvalid        integral         1     'h0  
  rready        integral         1     'h0  
  awaddr        integral         32    'h0  
  awlen         integral         8     'h0  
  awsize        integral         3     'h0  
  awburst       integral         2     'h0  
  awprot        integral         3     'h0  
  awcache       integral         4     'h3  
  awvalid       integral         1     'h0  
  awready       integral         1     'h0  
  wdata         integral         32    'h0  
  wstrb         integral         4     'h0  
  wlast         integral         1     'h0  
  wvalid        integral         1     'h0  
  wready        integral         1     'h0  
  bvalid        integral         1     'h0  
  bready        integral         1     'h0  
  bresp         integral         2     'h0  
  s2mm_introut  integral         1     'h0  
--------------------------------------------

UVM_INFO /home/xe-user106/10x-Engineers/SOC-DV/TCP/axi_dma_verification/verif/register_uvc/axi_lite_monitor.sv(79) @ 150000: uvm_test_top.env.axi_lite_agt.monitor [axi_lite_monitor] Transaction Collected :
--------------------------------------------------
Name                  Type             Size  Value
--------------------------------------------------
item                  reg_transaction  -     @1320
  s_axi_lite_awvalid  integral         1     'h0  
  s_axi_lite_awready  integral         1     'h0  
  s_axi_lite_awaddr   integral         10    'h0  
  s_axi_lite_wvalid   integral         1     'h0  
  s_axi_lite_wready   integral         1     'h0  
  s_axi_lite_wdata    integral         32    'h0  
  s_axi_lite_bresp    integral         2     'h0  
  s_axi_lite_bvalid   integral         1     'h0  
  s_axi_lite_bready   integral         1     'h0  
  s_axi_lite_arvalid  integral         1     'h0  
  s_axi_lite_arready  integral         1     'h0  
  s_axi_lite_araddr   integral         10    'h0  
  s_axi_lite_rvalid   integral         1     'h0  
  s_axi_lite_rready   integral         1     'h0  
  s_axi_lite_rdata    integral         32    'h0  
  s_axi_lite_rresp    integral         2     'h0  
--------------------------------------------------

UVM_INFO /home/xe-user106/10x-Engineers/SOC-DV/TCP/axi_dma_verification/verif/environment/coverage_model.sv(31) @ 150000: uvm_test_top.env.axi_lite_cov [\$unit_params_pkg_sv_891442008 .\axi_lite_coverage::write ] Recieved AXI Lite transaction in Coverage Model
UVM_INFO /home/xe-user106/10x-Engineers/SOC-DV/TCP/axi_dma_verification/verif/register_uvc/axi_lite_monitor.sv(79) @ 170000: uvm_test_top.env.axi_lite_agt.monitor [axi_lite_monitor] Transaction Collected :
--------------------------------------------------
Name                  Type             Size  Value
--------------------------------------------------
item                  reg_transaction  -     @1320
  s_axi_lite_awvalid  integral         1     'h0  
  s_axi_lite_awready  integral         1     'h0  
  s_axi_lite_awaddr   integral         10    'h0  
  s_axi_lite_wvalid   integral         1     'h0  
  s_axi_lite_wready   integral         1     'h0  
  s_axi_lite_wdata    integral         32    'h0  
  s_axi_lite_bresp    integral         2     'h0  
  s_axi_lite_bvalid   integral         1     'h0  
  s_axi_lite_bready   integral         1     'h0  
  s_axi_lite_arvalid  integral         1     'h0  
  s_axi_lite_arready  integral         1     'h0  
  s_axi_lite_araddr   integral         10    'h0  
  s_axi_lite_rvalid   integral         1     'h0  
  s_axi_lite_rready   integral         1     'h0  
  s_axi_lite_rdata    integral         32    'h0  
  s_axi_lite_rresp    integral         2     'h0  
--------------------------------------------------

UVM_INFO /home/xe-user106/10x-Engineers/SOC-DV/TCP/axi_dma_verification/verif/environment/coverage_model.sv(31) @ 170000: uvm_test_top.env.axi_lite_cov [\$unit_params_pkg_sv_891442008 .\axi_lite_coverage::write ] Recieved AXI Lite transaction in Coverage Model
UVM_INFO /home/xe-user106/10x-Engineers/SOC-DV/TCP/axi_dma_verification/verif/environment/coverage_model.sv(326) @ 170000: uvm_test_top.env.s2mm_introut_cov [\$unit_params_pkg_sv_891442008 .\s2mm_introut_coverage::write ] Recieved AXI transaction in Coverage Model
UVM_INFO /home/xe-user106/10x-Engineers/SOC-DV/TCP/axi_dma_verification/verif/axi_coverage_monitor/axi_monitor.sv(95) @ 170000: uvm_test_top.env.axi_mon [axi_monitor] Transaction Collected :
--------------------------------------------
Name            Type             Size  Value
--------------------------------------------
item            axi_transaction  -     @1314
  araddr        integral         32    'h0  
  arlen         integral         8     'h0  
  arsize        integral         3     'h0  
  arburst       integral         2     'h0  
  arprot        integral         3     'h0  
  arcache       integral         4     'h3  
  arvalid       integral         1     'h0  
  arready       integral         1     'h0  
  rdata         integral         32    'h0  
  rresp         integral         2     'h0  
  rlast         integral         1     'h0  
  rvalid        integral         1     'h0  
  rready        integral         1     'h0  
  awaddr        integral         32    'h0  
  awlen         integral         8     'h0  
  awsize        integral         3     'h0  
  awburst       integral         2     'h0  
  awprot        integral         3     'h0  
  awcache       integral         4     'h3  
  awvalid       integral         1     'h0  
  awready       integral         1     'h0  
  wdata         integral         32    'h0  
  wstrb         integral         4     'h0  
  wlast         integral         1     'h0  
  wvalid        integral         1     'h0  
  wready        integral         1     'h0  
  bvalid        integral         1     'h0  
  bready        integral         1     'h0  
  bresp         integral         2     'h0  
  s2mm_introut  integral         1     'h0  
--------------------------------------------

UVM_INFO /home/xe-user106/10x-Engineers/SOC-DV/TCP/axi_dma_verification/verif/mm2s_uvc/mm2s_monitor.sv(88) @ 170000: uvm_test_top.env.axi_r_agt.monitor [mm2s_monitor] Transaction Collected :
--------------------------------------------
Name            Type             Size  Value
--------------------------------------------
item            axi_transaction  -     @1306
  araddr        integral         32    'h0  
  arlen         integral         8     'h0  
  arsize        integral         3     'h0  
  arburst       integral         2     'h0  
  arprot        integral         3     'h0  
  arcache       integral         4     'h3  
  arvalid       integral         1     'h0  
  arready       integral         1     'h0  
  rdata         integral         32    'h0  
  rresp         integral         2     'h0  
  rlast         integral         1     'h0  
  rvalid        integral         1     'h0  
  rready        integral         1     'h0  
  awaddr        integral         32    'h0  
  awlen         integral         8     'h0  
  awsize        integral         3     'h0  
  awburst       integral         2     'h0  
  awprot        integral         3     'h0  
  awcache       integral         4     'h3  
  awvalid       integral         1     'h0  
  awready       integral         1     'h0  
  wdata         integral         32    'h0  
  wstrb         integral         4     'h0  
  wlast         integral         1     'h0  
  wvalid        integral         1     'h0  
  wready        integral         1     'h0  
  bvalid        integral         1     'h0  
  bready        integral         1     'h0  
  bresp         integral         2     'h0  
  s2mm_introut  integral         1     'h0  
--------------------------------------------

UVM_INFO /home/xe-user106/10x-Engineers/SOC-DV/TCP/axi_dma_verification/verif/stream_uvc/axis_read_monitor.sv(67) @ 170000: uvm_test_top.env.axis_r_agt.monitor [] ///////////////////////////////////////////////////////////////////////
UVM_INFO /home/xe-user106/10x-Engineers/SOC-DV/TCP/axi_dma_verification/verif/stream_uvc/axis_read_monitor.sv(68) @ 170000: uvm_test_top.env.axis_r_agt.monitor [] //                      MM2S READ Monitor                            //
UVM_INFO /home/xe-user106/10x-Engineers/SOC-DV/TCP/axi_dma_verification/verif/stream_uvc/axis_read_monitor.sv(69) @ 170000: uvm_test_top.env.axis_r_agt.monitor [] ///////////////////////////////////////////////////////////////////////
UVM_INFO /home/xe-user106/10x-Engineers/SOC-DV/TCP/axi_dma_verification/verif/stream_uvc/axis_read_monitor.sv(70) @ 170000: uvm_test_top.env.axis_r_agt.monitor [axis_read_monitor] Transaction Collected from AXI-Stream Read Master :
----------------------------------------
Name       Type              Size  Value
----------------------------------------
item       axis_transaction  -     @1544
  tdata    integral          32    'h0  
  tkeep    integral          4     'h0  
  tvalid   integral          1     'h0  
  tready   integral          1     'h0  
  tlast    integral          1     'h0  
  introut  integral          1     'h0  
----------------------------------------

UVM_INFO /home/xe-user106/10x-Engineers/SOC-DV/TCP/axi_dma_verification/verif/environment/coverage_model.sv(195) @ 170000: uvm_test_top.env.axis_read_cov [\$unit_params_pkg_sv_891442008 .\axis_read_coverage::write ] Recieved AXIS READ transaction in Coverage Model
UVM_INFO /home/xe-user106/10x-Engineers/SOC-DV/TCP/axi_dma_verification/verif/stream_uvc/axis_read_monitor.sv(67) @ 190000: uvm_test_top.env.axis_r_agt.monitor [] ///////////////////////////////////////////////////////////////////////
UVM_INFO /home/xe-user106/10x-Engineers/SOC-DV/TCP/axi_dma_verification/verif/stream_uvc/axis_read_monitor.sv(68) @ 190000: uvm_test_top.env.axis_r_agt.monitor [] //                      MM2S READ Monitor                            //
UVM_INFO /home/xe-user106/10x-Engineers/SOC-DV/TCP/axi_dma_verification/verif/stream_uvc/axis_read_monitor.sv(69) @ 190000: uvm_test_top.env.axis_r_agt.monitor [] ///////////////////////////////////////////////////////////////////////
UVM_INFO /home/xe-user106/10x-Engineers/SOC-DV/TCP/axi_dma_verification/verif/stream_uvc/axis_read_monitor.sv(70) @ 190000: uvm_test_top.env.axis_r_agt.monitor [axis_read_monitor] Transaction Collected from AXI-Stream Read Master :
----------------------------------------
Name       Type              Size  Value
----------------------------------------
item       axis_transaction  -     @1578
  tdata    integral          32    'h0  
  tkeep    integral          4     'h0  
  tvalid   integral          1     'h0  
  tready   integral          1     'h0  
  tlast    integral          1     'h0  
  introut  integral          1     'h0  
----------------------------------------

UVM_INFO /home/xe-user106/10x-Engineers/SOC-DV/TCP/axi_dma_verification/verif/environment/coverage_model.sv(195) @ 190000: uvm_test_top.env.axis_read_cov [\$unit_params_pkg_sv_891442008 .\axis_read_coverage::write ] Recieved AXIS READ transaction in Coverage Model
UVM_INFO /home/xe-user106/10x-Engineers/SOC-DV/TCP/axi_dma_verification/verif/mm2s_uvc/mm2s_monitor.sv(88) @ 190000: uvm_test_top.env.axi_r_agt.monitor [mm2s_monitor] Transaction Collected :
--------------------------------------------
Name            Type             Size  Value
--------------------------------------------
item            axi_transaction  -     @1306
  araddr        integral         32    'h0  
  arlen         integral         8     'h0  
  arsize        integral         3     'h0  
  arburst       integral         2     'h0  
  arprot        integral         3     'h0  
  arcache       integral         4     'h3  
  arvalid       integral         1     'h0  
  arready       integral         1     'h0  
  rdata         integral         32    'h0  
  rresp         integral         2     'h0  
  rlast         integral         1     'h0  
  rvalid        integral         1     'h0  
  rready        integral         1     'h0  
  awaddr        integral         32    'h0  
  awlen         integral         8     'h0  
  awsize        integral         3     'h0  
  awburst       integral         2     'h0  
  awprot        integral         3     'h0  
  awcache       integral         4     'h3  
  awvalid       integral         1     'h0  
  awready       integral         1     'h0  
  wdata         integral         32    'h0  
  wstrb         integral         4     'h0  
  wlast         integral         1     'h0  
  wvalid        integral         1     'h0  
  wready        integral         1     'h0  
  bvalid        integral         1     'h0  
  bready        integral         1     'h0  
  bresp         integral         2     'h0  
  s2mm_introut  integral         1     'h0  
--------------------------------------------

UVM_INFO /home/xe-user106/10x-Engineers/SOC-DV/TCP/axi_dma_verification/verif/environment/coverage_model.sv(326) @ 190000: uvm_test_top.env.s2mm_introut_cov [\$unit_params_pkg_sv_891442008 .\s2mm_introut_coverage::write ] Recieved AXI transaction in Coverage Model
UVM_INFO /home/xe-user106/10x-Engineers/SOC-DV/TCP/axi_dma_verification/verif/axi_coverage_monitor/axi_monitor.sv(95) @ 190000: uvm_test_top.env.axi_mon [axi_monitor] Transaction Collected :
--------------------------------------------
Name            Type             Size  Value
--------------------------------------------
item            axi_transaction  -     @1314
  araddr        integral         32    'h0  
  arlen         integral         8     'h0  
  arsize        integral         3     'h0  
  arburst       integral         2     'h0  
  arprot        integral         3     'h0  
  arcache       integral         4     'h3  
  arvalid       integral         1     'h0  
  arready       integral         1     'h0  
  rdata         integral         32    'h0  
  rresp         integral         2     'h0  
  rlast         integral         1     'h0  
  rvalid        integral         1     'h0  
  rready        integral         1     'h0  
  awaddr        integral         32    'h0  
  awlen         integral         8     'h0  
  awsize        integral         3     'h0  
  awburst       integral         2     'h0  
  awprot        integral         3     'h0  
  awcache       integral         4     'h3  
  awvalid       integral         1     'h0  
  awready       integral         1     'h0  
  wdata         integral         32    'h0  
  wstrb         integral         4     'h0  
  wlast         integral         1     'h0  
  wvalid        integral         1     'h0  
  wready        integral         1     'h0  
  bvalid        integral         1     'h0  
  bready        integral         1     'h0  
  bresp         integral         2     'h0  
  s2mm_introut  integral         1     'h0  
--------------------------------------------

UVM_INFO /home/xe-user106/10x-Engineers/SOC-DV/TCP/axi_dma_verification/verif/register_uvc/axi_lite_monitor.sv(79) @ 190000: uvm_test_top.env.axi_lite_agt.monitor [axi_lite_monitor] Transaction Collected :
--------------------------------------------------
Name                  Type             Size  Value
--------------------------------------------------
item                  reg_transaction  -     @1320
  s_axi_lite_awvalid  integral         1     'h0  
  s_axi_lite_awready  integral         1     'h0  
  s_axi_lite_awaddr   integral         10    'h0  
  s_axi_lite_wvalid   integral         1     'h0  
  s_axi_lite_wready   integral         1     'h0  
  s_axi_lite_wdata    integral         32    'h0  
  s_axi_lite_bresp    integral         2     'h0  
  s_axi_lite_bvalid   integral         1     'h0  
  s_axi_lite_bready   integral         1     'h0  
  s_axi_lite_arvalid  integral         1     'h0  
  s_axi_lite_arready  integral         1     'h0  
  s_axi_lite_araddr   integral         10    'h0  
  s_axi_lite_rvalid   integral         1     'h0  
  s_axi_lite_rready   integral         1     'h0  
  s_axi_lite_rdata    integral         32    'h0  
  s_axi_lite_rresp    integral         2     'h0  
--------------------------------------------------

UVM_INFO /home/xe-user106/10x-Engineers/SOC-DV/TCP/axi_dma_verification/verif/environment/coverage_model.sv(31) @ 190000: uvm_test_top.env.axi_lite_cov [\$unit_params_pkg_sv_891442008 .\axi_lite_coverage::write ] Recieved AXI Lite transaction in Coverage Model
UVM_INFO /home/xe-user106/10x-Engineers/SOC-DV/TCP/axi_dma_verification/verif/register_uvc/axi_lite_monitor.sv(79) @ 210000: uvm_test_top.env.axi_lite_agt.monitor [axi_lite_monitor] Transaction Collected :
--------------------------------------------------
Name                  Type             Size  Value
--------------------------------------------------
item                  reg_transaction  -     @1320
  s_axi_lite_awvalid  integral         1     'h0  
  s_axi_lite_awready  integral         1     'h0  
  s_axi_lite_awaddr   integral         10    'h0  
  s_axi_lite_wvalid   integral         1     'h0  
  s_axi_lite_wready   integral         1     'h0  
  s_axi_lite_wdata    integral         32    'h0  
  s_axi_lite_bresp    integral         2     'h0  
  s_axi_lite_bvalid   integral         1     'h0  
  s_axi_lite_bready   integral         1     'h0  
  s_axi_lite_arvalid  integral         1     'h0  
  s_axi_lite_arready  integral         1     'h0  
  s_axi_lite_araddr   integral         10    'h0  
  s_axi_lite_rvalid   integral         1     'h0  
  s_axi_lite_rready   integral         1     'h0  
  s_axi_lite_rdata    integral         32    'h0  
  s_axi_lite_rresp    integral         2     'h0  
--------------------------------------------------

UVM_INFO /home/xe-user106/10x-Engineers/SOC-DV/TCP/axi_dma_verification/verif/environment/coverage_model.sv(31) @ 210000: uvm_test_top.env.axi_lite_cov [\$unit_params_pkg_sv_891442008 .\axi_lite_coverage::write ] Recieved AXI Lite transaction in Coverage Model
UVM_INFO /home/xe-user106/10x-Engineers/SOC-DV/TCP/axi_dma_verification/verif/environment/coverage_model.sv(326) @ 210000: uvm_test_top.env.s2mm_introut_cov [\$unit_params_pkg_sv_891442008 .\s2mm_introut_coverage::write ] Recieved AXI transaction in Coverage Model
UVM_INFO /home/xe-user106/10x-Engineers/SOC-DV/TCP/axi_dma_verification/verif/axi_coverage_monitor/axi_monitor.sv(95) @ 210000: uvm_test_top.env.axi_mon [axi_monitor] Transaction Collected :
--------------------------------------------
Name            Type             Size  Value
--------------------------------------------
item            axi_transaction  -     @1314
  araddr        integral         32    'h0  
  arlen         integral         8     'h0  
  arsize        integral         3     'h0  
  arburst       integral         2     'h0  
  arprot        integral         3     'h0  
  arcache       integral         4     'h3  
  arvalid       integral         1     'h0  
  arready       integral         1     'h0  
  rdata         integral         32    'h0  
  rresp         integral         2     'h0  
  rlast         integral         1     'h0  
  rvalid        integral         1     'h0  
  rready        integral         1     'h0  
  awaddr        integral         32    'h0  
  awlen         integral         8     'h0  
  awsize        integral         3     'h0  
  awburst       integral         2     'h0  
  awprot        integral         3     'h0  
  awcache       integral         4     'h3  
  awvalid       integral         1     'h0  
  awready       integral         1     'h0  
  wdata         integral         32    'h0  
  wstrb         integral         4     'h0  
  wlast         integral         1     'h0  
  wvalid        integral         1     'h0  
  wready        integral         1     'h0  
  bvalid        integral         1     'h0  
  bready        integral         1     'h0  
  bresp         integral         2     'h0  
  s2mm_introut  integral         1     'h0  
--------------------------------------------

UVM_INFO /home/xe-user106/10x-Engineers/SOC-DV/TCP/axi_dma_verification/verif/mm2s_uvc/mm2s_monitor.sv(88) @ 210000: uvm_test_top.env.axi_r_agt.monitor [mm2s_monitor] Transaction Collected :
--------------------------------------------
Name            Type             Size  Value
--------------------------------------------
item            axi_transaction  -     @1306
  araddr        integral         32    'h0  
  arlen         integral         8     'h0  
  arsize        integral         3     'h0  
  arburst       integral         2     'h0  
  arprot        integral         3     'h0  
  arcache       integral         4     'h3  
  arvalid       integral         1     'h0  
  arready       integral         1     'h0  
  rdata         integral         32    'h0  
  rresp         integral         2     'h0  
  rlast         integral         1     'h0  
  rvalid        integral         1     'h0  
  rready        integral         1     'h0  
  awaddr        integral         32    'h0  
  awlen         integral         8     'h0  
  awsize        integral         3     'h0  
  awburst       integral         2     'h0  
  awprot        integral         3     'h0  
  awcache       integral         4     'h3  
  awvalid       integral         1     'h0  
  awready       integral         1     'h0  
  wdata         integral         32    'h0  
  wstrb         integral         4     'h0  
  wlast         integral         1     'h0  
  wvalid        integral         1     'h0  
  wready        integral         1     'h0  
  bvalid        integral         1     'h0  
  bready        integral         1     'h0  
  bresp         integral         2     'h0  
  s2mm_introut  integral         1     'h0  
--------------------------------------------

UVM_INFO /home/xe-user106/10x-Engineers/SOC-DV/TCP/axi_dma_verification/verif/stream_uvc/axis_read_monitor.sv(67) @ 210000: uvm_test_top.env.axis_r_agt.monitor [] ///////////////////////////////////////////////////////////////////////
UVM_INFO /home/xe-user106/10x-Engineers/SOC-DV/TCP/axi_dma_verification/verif/stream_uvc/axis_read_monitor.sv(68) @ 210000: uvm_test_top.env.axis_r_agt.monitor [] //                      MM2S READ Monitor                            //
UVM_INFO /home/xe-user106/10x-Engineers/SOC-DV/TCP/axi_dma_verification/verif/stream_uvc/axis_read_monitor.sv(69) @ 210000: uvm_test_top.env.axis_r_agt.monitor [] ///////////////////////////////////////////////////////////////////////
UVM_INFO /home/xe-user106/10x-Engineers/SOC-DV/TCP/axi_dma_verification/verif/stream_uvc/axis_read_monitor.sv(70) @ 210000: uvm_test_top.env.axis_r_agt.monitor [axis_read_monitor] Transaction Collected from AXI-Stream Read Master :
----------------------------------------
Name       Type              Size  Value
----------------------------------------
item       axis_transaction  -     @1592
  tdata    integral          32    'h0  
  tkeep    integral          4     'h0  
  tvalid   integral          1     'h0  
  tready   integral          1     'h0  
  tlast    integral          1     'h0  
  introut  integral          1     'h0  
----------------------------------------

UVM_INFO /home/xe-user106/10x-Engineers/SOC-DV/TCP/axi_dma_verification/verif/environment/coverage_model.sv(195) @ 210000: uvm_test_top.env.axis_read_cov [\$unit_params_pkg_sv_891442008 .\axis_read_coverage::write ] Recieved AXIS READ transaction in Coverage Model
UVM_INFO /home/xe-user106/10x-Engineers/SOC-DV/TCP/axi_dma_verification/verif/stream_uvc/axis_read_monitor.sv(67) @ 230000: uvm_test_top.env.axis_r_agt.monitor [] ///////////////////////////////////////////////////////////////////////
UVM_INFO /home/xe-user106/10x-Engineers/SOC-DV/TCP/axi_dma_verification/verif/stream_uvc/axis_read_monitor.sv(68) @ 230000: uvm_test_top.env.axis_r_agt.monitor [] //                      MM2S READ Monitor                            //
UVM_INFO /home/xe-user106/10x-Engineers/SOC-DV/TCP/axi_dma_verification/verif/stream_uvc/axis_read_monitor.sv(69) @ 230000: uvm_test_top.env.axis_r_agt.monitor [] ///////////////////////////////////////////////////////////////////////
UVM_INFO /home/xe-user106/10x-Engineers/SOC-DV/TCP/axi_dma_verification/verif/stream_uvc/axis_read_monitor.sv(70) @ 230000: uvm_test_top.env.axis_r_agt.monitor [axis_read_monitor] Transaction Collected from AXI-Stream Read Master :
----------------------------------------
Name       Type              Size  Value
----------------------------------------
item       axis_transaction  -     @1626
  tdata    integral          32    'h0  
  tkeep    integral          4     'h0  
  tvalid   integral          1     'h0  
  tready   integral          1     'h0  
  tlast    integral          1     'h0  
  introut  integral          1     'h0  
----------------------------------------

UVM_INFO /home/xe-user106/10x-Engineers/SOC-DV/TCP/axi_dma_verification/verif/environment/coverage_model.sv(195) @ 230000: uvm_test_top.env.axis_read_cov [\$unit_params_pkg_sv_891442008 .\axis_read_coverage::write ] Recieved AXIS READ transaction in Coverage Model
UVM_INFO /home/xe-user106/10x-Engineers/SOC-DV/TCP/axi_dma_verification/verif/mm2s_uvc/mm2s_monitor.sv(88) @ 230000: uvm_test_top.env.axi_r_agt.monitor [mm2s_monitor] Transaction Collected :
--------------------------------------------
Name            Type             Size  Value
--------------------------------------------
item            axi_transaction  -     @1306
  araddr        integral         32    'h0  
  arlen         integral         8     'h0  
  arsize        integral         3     'h0  
  arburst       integral         2     'h0  
  arprot        integral         3     'h0  
  arcache       integral         4     'h3  
  arvalid       integral         1     'h0  
  arready       integral         1     'h0  
  rdata         integral         32    'h0  
  rresp         integral         2     'h0  
  rlast         integral         1     'h0  
  rvalid        integral         1     'h0  
  rready        integral         1     'h0  
  awaddr        integral         32    'h0  
  awlen         integral         8     'h0  
  awsize        integral         3     'h0  
  awburst       integral         2     'h0  
  awprot        integral         3     'h0  
  awcache       integral         4     'h3  
  awvalid       integral         1     'h0  
  awready       integral         1     'h0  
  wdata         integral         32    'h0  
  wstrb         integral         4     'h0  
  wlast         integral         1     'h0  
  wvalid        integral         1     'h0  
  wready        integral         1     'h0  
  bvalid        integral         1     'h0  
  bready        integral         1     'h0  
  bresp         integral         2     'h0  
  s2mm_introut  integral         1     'h0  
--------------------------------------------

UVM_INFO /home/xe-user106/10x-Engineers/SOC-DV/TCP/axi_dma_verification/verif/environment/coverage_model.sv(326) @ 230000: uvm_test_top.env.s2mm_introut_cov [\$unit_params_pkg_sv_891442008 .\s2mm_introut_coverage::write ] Recieved AXI transaction in Coverage Model
UVM_INFO /home/xe-user106/10x-Engineers/SOC-DV/TCP/axi_dma_verification/verif/axi_coverage_monitor/axi_monitor.sv(95) @ 230000: uvm_test_top.env.axi_mon [axi_monitor] Transaction Collected :
--------------------------------------------
Name            Type             Size  Value
--------------------------------------------
item            axi_transaction  -     @1314
  araddr        integral         32    'h0  
  arlen         integral         8     'h0  
  arsize        integral         3     'h0  
  arburst       integral         2     'h0  
  arprot        integral         3     'h0  
  arcache       integral         4     'h3  
  arvalid       integral         1     'h0  
  arready       integral         1     'h0  
  rdata         integral         32    'h0  
  rresp         integral         2     'h0  
  rlast         integral         1     'h0  
  rvalid        integral         1     'h0  
  rready        integral         1     'h0  
  awaddr        integral         32    'h0  
  awlen         integral         8     'h0  
  awsize        integral         3     'h0  
  awburst       integral         2     'h0  
  awprot        integral         3     'h0  
  awcache       integral         4     'h3  
  awvalid       integral         1     'h0  
  awready       integral         1     'h0  
  wdata         integral         32    'h0  
  wstrb         integral         4     'h0  
  wlast         integral         1     'h0  
  wvalid        integral         1     'h0  
  wready        integral         1     'h0  
  bvalid        integral         1     'h0  
  bready        integral         1     'h0  
  bresp         integral         2     'h0  
  s2mm_introut  integral         1     'h0  
--------------------------------------------

UVM_INFO /home/xe-user106/10x-Engineers/SOC-DV/TCP/axi_dma_verification/verif/register_uvc/axi_lite_monitor.sv(79) @ 230000: uvm_test_top.env.axi_lite_agt.monitor [axi_lite_monitor] Transaction Collected :
--------------------------------------------------
Name                  Type             Size  Value
--------------------------------------------------
item                  reg_transaction  -     @1320
  s_axi_lite_awvalid  integral         1     'h0  
  s_axi_lite_awready  integral         1     'h0  
  s_axi_lite_awaddr   integral         10    'h0  
  s_axi_lite_wvalid   integral         1     'h0  
  s_axi_lite_wready   integral         1     'h0  
  s_axi_lite_wdata    integral         32    'h0  
  s_axi_lite_bresp    integral         2     'h0  
  s_axi_lite_bvalid   integral         1     'h0  
  s_axi_lite_bready   integral         1     'h0  
  s_axi_lite_arvalid  integral         1     'h0  
  s_axi_lite_arready  integral         1     'h0  
  s_axi_lite_araddr   integral         10    'h0  
  s_axi_lite_rvalid   integral         1     'h0  
  s_axi_lite_rready   integral         1     'h0  
  s_axi_lite_rdata    integral         32    'h0  
  s_axi_lite_rresp    integral         2     'h0  
--------------------------------------------------

UVM_INFO /home/xe-user106/10x-Engineers/SOC-DV/TCP/axi_dma_verification/verif/environment/coverage_model.sv(31) @ 230000: uvm_test_top.env.axi_lite_cov [\$unit_params_pkg_sv_891442008 .\axi_lite_coverage::write ] Recieved AXI Lite transaction in Coverage Model
UVM_INFO /home/xe-user106/10x-Engineers/SOC-DV/TCP/axi_dma_verification/verif/register_uvc/axi_lite_monitor.sv(79) @ 250000: uvm_test_top.env.axi_lite_agt.monitor [axi_lite_monitor] Transaction Collected :
--------------------------------------------------
Name                  Type             Size  Value
--------------------------------------------------
item                  reg_transaction  -     @1320
  s_axi_lite_awvalid  integral         1     'h0  
  s_axi_lite_awready  integral         1     'h0  
  s_axi_lite_awaddr   integral         10    'h0  
  s_axi_lite_wvalid   integral         1     'h0  
  s_axi_lite_wready   integral         1     'h0  
  s_axi_lite_wdata    integral         32    'h0  
  s_axi_lite_bresp    integral         2     'h0  
  s_axi_lite_bvalid   integral         1     'h0  
  s_axi_lite_bready   integral         1     'h0  
  s_axi_lite_arvalid  integral         1     'h0  
  s_axi_lite_arready  integral         1     'h0  
  s_axi_lite_araddr   integral         10    'h0  
  s_axi_lite_rvalid   integral         1     'h0  
  s_axi_lite_rready   integral         1     'h0  
  s_axi_lite_rdata    integral         32    'h0  
  s_axi_lite_rresp    integral         2     'h0  
--------------------------------------------------

