#-----------------------------------------------------------
# xsim v2022.1 (64-bit)
# SW Build 3526262 on Mon Apr 18 15:47:01 MDT 2022
# IP Build 3524634 on Mon Apr 18 20:55:01 MDT 2022
# Start of session at: Tue Jan 21 10:51:16 2025
# Process ID: 236652
# Current directory: /home/xe-user106/10x-Engineers/SOC-DV/TCP/axi_dma_verification/rtl/axi_dma_verification_10xe_tcp/axi_dma_verification_10xe_tcp.sim/sim_1/behav/xsim
# Command line: xsim -log simulate.log -mode tcl -source {xsim.dir/axi_dma_tb_top_behav/xsim_script.tcl}
# Log file: /home/xe-user106/10x-Engineers/SOC-DV/TCP/axi_dma_verification/rtl/axi_dma_verification_10xe_tcp/axi_dma_verification_10xe_tcp.sim/sim_1/behav/xsim/simulate.log
# Journal file: /home/xe-user106/10x-Engineers/SOC-DV/TCP/axi_dma_verification/rtl/axi_dma_verification_10xe_tcp/axi_dma_verification_10xe_tcp.sim/sim_1/behav/xsim/xsim.jou
# Running On: noman-10x, OS: Linux, CPU Frequency: 1544.651 MHz, CPU Physical cores: 12, Host memory: 16050 MB
#-----------------------------------------------------------
source xsim.dir/axi_dma_tb_top_behav/xsim_script.tcl
# xsim {axi_dma_tb_top_behav} -view {{/home/xe-user106/10x-Engineers/SOC-DV/TCP/axi_dma_verification/axi_dma_tb_top_behav.wcfg}} -tclbatch {axi_dma_tb_top.tcl} -key {Behavioral:sim_1:Functional:axi_dma_tb_top}
Time resolution is 1 ps
open_wave_config /home/xe-user106/10x-Engineers/SOC-DV/TCP/axi_dma_verification/axi_dma_tb_top_behav.wcfg
ERROR: [Wavedata 42-2] Error while reading WCFG file '/home/xe-user106/10x-Engineers/SOC-DV/TCP/axi_dma_verification/axi_dma_tb_top_behav.wcfg'.
source axi_dma_tb_top.tcl
## set curr_wave [current_wave_config]
## if { [string length $curr_wave] == 0 } {
##   if { [llength [get_objects]] > 0} {
##     add_wave /
##     set_property needs_save false [current_wave_config]
##   } else {
##      send_msg_id Add_Wave-1 WARNING "No top level signals found. Simulator will start without a wave window. If you want to open a wave window go to 'File->New Waveform Configuration' or type 'create_wave_config' in the TCL console."
##   }
## }
## run 1ms
UVM_INFO /home/xe-user106/vivado/Vivado/2022.1/data/system_verilog/uvm_1.2/xlnx_uvm_package.sv(18601) @ 0: reporter [UVM/RELNOTES] 
      (Specify +UVM_NO_RELNOTES to turn off this notice)
  with `UVM_OBJECT_DO_NOT_NEED_CONSTRUCTOR undefined.

  You are using a version of the UVM library that has been compiled
  with `UVM_NO_DEPRECATED undefined.

  You are using a version of the UVM library that has been compiled

  ***********       IMPORTANT RELEASE NOTES         ************
----------------------------------------------------------------
(C) 2013-2014 NVIDIA Corporation
(C) 2011-2013 Cypress Semiconductor Corp.
(C) 2006-2014 Synopsys, Inc.
(C) 2007-2014 Cadence Design Systems, Inc.
(C) 2007-2014 Mentor Graphics Corporation


----------------------------------------------------------------

 Block Memory Generator module loading initial data...
 Block Memory Generator data initialization complete.
Block Memory Generator module axi_dma_tb_top.memory.inst.\axi_mem_module.blk_mem_gen_v8_4_5_inst  is using a behavioral model for simulation which will not precisely model memory collision behavior.
UVM_INFO @ 0: reporter [RNTST] Running test random_reg_test...
UVM_INFO /home/xe-user106/vivado/Vivado/2022.1/data/system_verilog/uvm_1.2/xlnx_uvm_package.sv(7061) @ 0: reporter [UVM/CONFIGDB/SPELLCHK] include_coverage not located, did you mean env_cfg
UVM_INFO /home/xe-user106/vivado/Vivado/2022.1/data/system_verilog/uvm_1.2/xlnx_uvm_package.sv(7061) @ 0: reporter [UVM/CONFIGDB/SPELLCHK] include_coverage not located, did you mean env_cfg
UVM_INFO /home/xe-user106/vivado/Vivado/2022.1/data/system_verilog/uvm_1.2/xlnx_uvm_package.sv(7061) @ 0: reporter [UVM/CONFIGDB/SPELLCHK] include_coverage not located, did you mean env_cfg
UVM_INFO /home/xe-user106/vivado/Vivado/2022.1/data/system_verilog/uvm_1.2/xlnx_uvm_package.sv(7061) @ 0: reporter [UVM/CONFIGDB/SPELLCHK] include_coverage not located, did you mean env_cfg
UVM_INFO /home/xe-user106/vivado/Vivado/2022.1/data/system_verilog/uvm_1.2/xlnx_uvm_package.sv(7061) @ 0: reporter [UVM/CONFIGDB/SPELLCHK] include_coverage not located, did you mean env_cfg
UVM_INFO /home/xe-user106/vivado/Vivado/2022.1/data/system_verilog/uvm_1.2/xlnx_uvm_package.sv(7061) @ 0: reporter [UVM/CONFIGDB/SPELLCHK] include_coverage not located, did you mean env_cfg
UVM_INFO /home/xe-user106/vivado/Vivado/2022.1/data/system_verilog/uvm_1.2/xlnx_uvm_package.sv(7061) @ 0: reporter [UVM/CONFIGDB/SPELLCHK] include_coverage not located, did you mean env_cfg
UVM_INFO /home/xe-user106/vivado/Vivado/2022.1/data/system_verilog/uvm_1.2/xlnx_uvm_package.sv(7061) @ 0: reporter [UVM/CONFIGDB/SPELLCHK] include_coverage not located, did you mean env_cfg
UVM_INFO /home/xe-user106/vivado/Vivado/2022.1/data/system_verilog/uvm_1.2/xlnx_uvm_package.sv(7061) @ 0: reporter [UVM/CONFIGDB/SPELLCHK] include_coverage not located, did you mean env_cfg
UVM_INFO /home/xe-user106/vivado/Vivado/2022.1/data/system_verilog/uvm_1.2/xlnx_uvm_package.sv(7061) @ 0: reporter [UVM/CONFIGDB/SPELLCHK] include_coverage not located, did you mean env_cfg
UVM_INFO /home/xe-user106/vivado/Vivado/2022.1/data/system_verilog/uvm_1.2/xlnx_uvm_package.sv(7061) @ 0: reporter [UVM/CONFIGDB/SPELLCHK] include_coverage not located, did you mean env_cfg
UVM_INFO /home/xe-user106/vivado/Vivado/2022.1/data/system_verilog/uvm_1.2/xlnx_uvm_package.sv(18752) @ 0: reporter [UVMTOP] UVM testbench topology:
-------------------------------------------------------------------
Name                       Type                         Size  Value
-------------------------------------------------------------------
uvm_test_top               random_reg_test              -     @340 
  env                      environment                  -     @365 
    axi_cov_mon            axi_monitor                  -     @665 
      ap                   uvm_analysis_port            -     @749 
    axi_lite_agt           axi_lite_agent               -     @393 
      driver               axi_lite_driver              -     @760 
        rsp_port           uvm_analysis_port            -     @779 
        seq_item_port      uvm_seq_item_pull_port       -     @769 
      monitor              axi_lite_monitor             -     @789 
        ap                 uvm_analysis_port            -     @937 
      sequencer            axi_lite_sequencer           -     @798 
        rsp_export         uvm_analysis_export          -     @807 
        seq_item_export    uvm_seq_item_pull_imp        -     @925 
        arbitration_queue  array                        0     -    
        lock_queue         array                        0     -    
        num_last_reqs      integral                     32    'd1  
        num_last_rsps      integral                     32    'd1  
    axi_lite_cov           axi_lite_coverage            -     @729 
      analysis_imp         uvm_analysis_imp             -     @738 
    axis_r_agt             axis_read_agent              -     @679 
      driver               axis_read_driver             -     @954 
        rsp_port           uvm_analysis_port            -     @973 
        seq_item_port      uvm_seq_item_pull_port       -     @963 
      monitor              axis_read_monitor            -     @1120
        mm2s_read          uvm_analysis_port            -     @1130
      sequencer            uvm_sequencer                -     @983 
        rsp_export         uvm_analysis_export          -     @992 
        seq_item_export    uvm_seq_item_pull_imp        -     @1110
        arbitration_queue  array                        0     -    
        lock_queue         array                        0     -    
        num_last_reqs      integral                     32    'd1  
        num_last_rsps      integral                     32    'd1  
    axis_wr_agt            axis_write_agent             -     @691 
      driver               axis_write_driver            -     @1148
        rsp_port           uvm_analysis_port            -     @1167
        seq_item_port      uvm_seq_item_pull_port       -     @1157
      monitor              axis_write_monitor           -     @1314
        s2mm_write         uvm_analysis_port            -     @1324
      sequencer            uvm_sequencer                -     @1177
        rsp_export         uvm_analysis_export          -     @1186
        seq_item_export    uvm_seq_item_pull_imp        -     @1304
        arbitration_queue  array                        0     -    
        lock_queue         array                        0     -    
        num_last_reqs      integral                     32    'd1  
        num_last_rsps      integral                     32    'd1  
    sco                    scoreboard                   -     @700 
      read_export          uvm_analysis_imp_mm2s_read   -     @709 
      write_export         uvm_analysis_imp_s2mm_write  -     @719 
    vseqr                  virtual_sequencer            -     @407 
      rsp_export           uvm_analysis_export          -     @416 
      seq_item_export      uvm_seq_item_pull_imp        -     @534 
      arbitration_queue    array                        0     -    
      lock_queue           array                        0     -    
      num_last_reqs        integral                     32    'd1  
      num_last_rsps        integral                     32    'd1  
-------------------------------------------------------------------

UVM_INFO /home/xe-user106/vivado/Vivado/2022.1/data/system_verilog/uvm_1.2/xlnx_uvm_package.sv(20867) @ 0: reporter [UVM/COMP/NAMECHECK] This implementation of the component name checks requires DPI to be enabled
UVM_INFO /home/xe-user106/10x-Engineers/SOC-DV/TCP/axi_dma_verification/verif/stream_uvc/axis_write_monitor.sv(46) @ 0: uvm_test_top.env.axis_wr_agt.monitor [uvm_test_top.env.axis_wr_agt.monitor] AXIS Write Monitor Started
UVM_INFO /home/xe-user106/10x-Engineers/SOC-DV/TCP/axi_dma_verification/verif/stream_uvc/axis_read_monitor.sv(46) @ 0: uvm_test_top.env.axis_r_agt.monitor [uvm_test_top.env.axis_r_agt.monitor] AXIS Read Monitor Started
UVM_INFO /home/xe-user106/10x-Engineers/SOC-DV/TCP/axi_dma_verification/verif/register_uvc/axi_lite_monitor.sv(49) @ 0: uvm_test_top.env.axi_lite_agt.monitor [uvm_test_top.env.axi_lite_agt.monitor] Monitor Started
UVM_INFO /home/xe-user106/10x-Engineers/SOC-DV/TCP/axi_dma_verification/verif/register_uvc/axi_lite_driver.sv(43) @ 0: uvm_test_top.env.axi_lite_agt.driver [uvm_test_top.env.axi_lite_agt.driver] Driver Started
UVM_INFO /home/xe-user106/10x-Engineers/SOC-DV/TCP/axi_dma_verification/verif/axi_coverage_monitor/axi_monitor.sv(49) @ 0: uvm_test_top.env.axi_cov_mon [uvm_test_top.env.axi_cov_mon] AXI Monitor Started
Info: [XPM_MEMORY 20-1] MEMORY_PRIMITIVE (0) instructs Vivado Synthesis to choose the memory primitive type. Depending on their values, other XPM_MEMORY parameters may preclude the choice of certain memory primitive types. Review XPM_MEMORY documentation and parameter values to understand any limitations, or set MEMORY_PRIMITIVE to a different value. axi_dma_tb_top.DUT.U0.I_PRMRY_DATAMOVER.gen_s2mm_full.I_S2MM_FULL_WRAPPER.gen_enable_indet_btt_sf.I_INDET_BTT.I_XD_FIFO.non_blk_mem.I_SYNC_FIFOGEN_FIFO.xpm_fifo_instance.xpm_fifo_sync_inst.xpm_fifo_base_inst.\gen_sdpram.xpm_memory_base_inst .config_drc
Time: 1 ps  Iteration: 0  Process: /axi_dma_tb_top/DUT/U0/I_PRMRY_DATAMOVER/gen_s2mm_full/I_S2MM_FULL_WRAPPER/gen_enable_indet_btt_sf/I_INDET_BTT/I_XD_FIFO/non_blk_mem/I_SYNC_FIFOGEN_FIFO/xpm_fifo_instance/xpm_fifo_sync_inst/xpm_fifo_base_inst/gen_sdpram.xpm_memory_base_inst/Initial299_520  Scope: axi_dma_tb_top.DUT.U0.I_PRMRY_DATAMOVER.gen_s2mm_full.I_S2MM_FULL_WRAPPER.gen_enable_indet_btt_sf.I_INDET_BTT.I_XD_FIFO.non_blk_mem.I_SYNC_FIFOGEN_FIFO.xpm_fifo_instance.xpm_fifo_sync_inst.xpm_fifo_base_inst.\gen_sdpram.xpm_memory_base_inst .config_drc  File: /home/xe-user106/vivado/Vivado/2022.1/data/ip/xpm/xpm_memory/hdl/xpm_memory.sv Line: 493
UVM_INFO /home/xe-user106/10x-Engineers/SOC-DV/TCP/axi_dma_verification/verif/axi_coverage_monitor/axi_monitor.sv(94) @ 10000: uvm_test_top.env.axi_cov_mon [axi_monitor] Transaction Collected :
---------------------------------------
Name       Type             Size  Value
---------------------------------------
item       axi_transaction  -     @1390
  araddr   integral         32    'h0  
  arlen    integral         8     'h0  
  arsize   integral         3     'h0  
  arburst  integral         2     'h0  
  arprot   integral         3     'h0  
  arcache  integral         4     'h0  
  arvalid  integral         1     'h0  
  arready  integral         1     'h0  
  rdata    integral         32    'h0  
  rresp    integral         2     'h0  
  rlast    integral         1     'h0  
  rvalid   integral         1     'h0  
  rready   integral         1     'h0  
  awaddr   integral         32    'h0  
  awlen    integral         8     'h0  
  awsize   integral         3     'h0  
  awburst  integral         2     'h0  
  awprot   integral         3     'h0  
  awcache  integral         4     'h0  
  awvalid  integral         1     'h0  
  awready  integral         1     'h0  
  wdata    integral         32    'h0  
  wstrb    integral         4     'h0  
  wlast    integral         1     'h0  
  wvalid   integral         1     'h0  
  wready   integral         1     'h0  
  bvalid   integral         1     'h0  
  bready   integral         1     'h0  
  bresp    integral         2     'h0  
---------------------------------------

UVM_INFO /home/xe-user106/10x-Engineers/SOC-DV/TCP/axi_dma_verification/verif/environment/coverage_model.sv(31) @ 10000: uvm_test_top.env.axi_lite_cov [\$unit_params_pkg_sv_2076944976 .\axi_lite_coverage::write ] Recieved AXI Lite transaction in Coverage Model
UVM_INFO /home/xe-user106/10x-Engineers/SOC-DV/TCP/axi_dma_verification/verif/stream_uvc/axis_read_monitor.sv(66) @ 10000: uvm_test_top.env.axis_r_agt.monitor [] ///////////////////////////////////////////////////////////////////////
UVM_INFO /home/xe-user106/10x-Engineers/SOC-DV/TCP/axi_dma_verification/verif/stream_uvc/axis_read_monitor.sv(67) @ 10000: uvm_test_top.env.axis_r_agt.monitor [] //                      MM2S READ Monitor                            //
UVM_INFO /home/xe-user106/10x-Engineers/SOC-DV/TCP/axi_dma_verification/verif/stream_uvc/axis_read_monitor.sv(68) @ 10000: uvm_test_top.env.axis_r_agt.monitor [] ///////////////////////////////////////////////////////////////////////
UVM_INFO /home/xe-user106/10x-Engineers/SOC-DV/TCP/axi_dma_verification/verif/stream_uvc/axis_read_monitor.sv(69) @ 10000: uvm_test_top.env.axis_r_agt.monitor [axis_read_monitor] Transaction Collected from AXI-Stream Read Master :
---------------------------------------
Name      Type              Size  Value
---------------------------------------
item      axis_transaction  -     @1376
  tdata   integral          32    'h0  
  tkeep   integral          4     'h0  
  tvalid  integral          1     'h0  
  tready  integral          1     'h0  
  tlast   integral          1     'h0  
---------------------------------------

UVM_INFO /home/xe-user106/10x-Engineers/SOC-DV/TCP/axi_dma_verification/verif/stream_uvc/axis_write_monitor.sv(64) @ 10000: uvm_test_top.env.axis_wr_agt.monitor [] ///////////////////////////////////////////////////////////////////////
UVM_INFO /home/xe-user106/10x-Engineers/SOC-DV/TCP/axi_dma_verification/verif/stream_uvc/axis_write_monitor.sv(65) @ 10000: uvm_test_top.env.axis_wr_agt.monitor [] //                      S2MM WRITE Monitor                            //
UVM_INFO /home/xe-user106/10x-Engineers/SOC-DV/TCP/axi_dma_verification/verif/stream_uvc/axis_write_monitor.sv(66) @ 10000: uvm_test_top.env.axis_wr_agt.monitor [] ///////////////////////////////////////////////////////////////////////
UVM_INFO /home/xe-user106/10x-Engineers/SOC-DV/TCP/axi_dma_verification/verif/stream_uvc/axis_write_monitor.sv(67) @ 10000: uvm_test_top.env.axis_wr_agt.monitor [axis_write_monitor] Transaction Collected from AXI-Stream Write Slave :
---------------------------------------
Name      Type              Size  Value
---------------------------------------
item      axis_transaction  -     @1370
  tdata   integral          32    'h0  
  tkeep   integral          4     'h0  
  tvalid  integral          1     'h0  
  tready  integral          1     'h0  
  tlast   integral          1     'h0  
---------------------------------------

UVM_INFO /home/xe-user106/10x-Engineers/SOC-DV/TCP/axi_dma_verification/verif/stream_uvc/axis_write_monitor.sv(64) @ 30000: uvm_test_top.env.axis_wr_agt.monitor [] ///////////////////////////////////////////////////////////////////////
UVM_INFO /home/xe-user106/10x-Engineers/SOC-DV/TCP/axi_dma_verification/verif/stream_uvc/axis_write_monitor.sv(65) @ 30000: uvm_test_top.env.axis_wr_agt.monitor [] //                      S2MM WRITE Monitor                            //
UVM_INFO /home/xe-user106/10x-Engineers/SOC-DV/TCP/axi_dma_verification/verif/stream_uvc/axis_write_monitor.sv(66) @ 30000: uvm_test_top.env.axis_wr_agt.monitor [] ///////////////////////////////////////////////////////////////////////
UVM_INFO /home/xe-user106/10x-Engineers/SOC-DV/TCP/axi_dma_verification/verif/stream_uvc/axis_write_monitor.sv(67) @ 30000: uvm_test_top.env.axis_wr_agt.monitor [axis_write_monitor] Transaction Collected from AXI-Stream Write Slave :
---------------------------------------
Name      Type              Size  Value
---------------------------------------
item      axis_transaction  -     @1444
  tdata   integral          32    'h0  
  tkeep   integral          4     'h0  
  tvalid  integral          1     'h0  
  tready  integral          1     'h0  
  tlast   integral          1     'h0  
---------------------------------------

UVM_INFO /home/xe-user106/10x-Engineers/SOC-DV/TCP/axi_dma_verification/verif/stream_uvc/axis_read_monitor.sv(66) @ 30000: uvm_test_top.env.axis_r_agt.monitor [] ///////////////////////////////////////////////////////////////////////
UVM_INFO /home/xe-user106/10x-Engineers/SOC-DV/TCP/axi_dma_verification/verif/stream_uvc/axis_read_monitor.sv(67) @ 30000: uvm_test_top.env.axis_r_agt.monitor [] //                      MM2S READ Monitor                            //
UVM_INFO /home/xe-user106/10x-Engineers/SOC-DV/TCP/axi_dma_verification/verif/stream_uvc/axis_read_monitor.sv(68) @ 30000: uvm_test_top.env.axis_r_agt.monitor [] ///////////////////////////////////////////////////////////////////////
UVM_INFO /home/xe-user106/10x-Engineers/SOC-DV/TCP/axi_dma_verification/verif/stream_uvc/axis_read_monitor.sv(69) @ 30000: uvm_test_top.env.axis_r_agt.monitor [axis_read_monitor] Transaction Collected from AXI-Stream Read Master :
---------------------------------------
Name      Type              Size  Value
---------------------------------------
item      axis_transaction  -     @1432
  tdata   integral          32    'h0  
  tkeep   integral          4     'h0  
  tvalid  integral          1     'h0  
  tready  integral          1     'h0  
  tlast   integral          1     'h0  
---------------------------------------

UVM_INFO /home/xe-user106/10x-Engineers/SOC-DV/TCP/axi_dma_verification/verif/environment/coverage_model.sv(31) @ 30000: uvm_test_top.env.axi_lite_cov [\$unit_params_pkg_sv_2076944976 .\axi_lite_coverage::write ] Recieved AXI Lite transaction in Coverage Model
UVM_INFO /home/xe-user106/10x-Engineers/SOC-DV/TCP/axi_dma_verification/verif/axi_coverage_monitor/axi_monitor.sv(94) @ 30000: uvm_test_top.env.axi_cov_mon [axi_monitor] Transaction Collected :
---------------------------------------
Name       Type             Size  Value
---------------------------------------
item       axi_transaction  -     @1390
  araddr   integral         32    'h0  
  arlen    integral         8     'h0  
  arsize   integral         3     'h0  
  arburst  integral         2     'h0  
  arprot   integral         3     'h0  
  arcache  integral         4     'h3  
  arvalid  integral         1     'h0  
  arready  integral         1     'h0  
  rdata    integral         32    'h0  
  rresp    integral         2     'h0  
  rlast    integral         1     'h0  
  rvalid   integral         1     'h0  
  rready   integral         1     'h0  
  awaddr   integral         32    'h0  
  awlen    integral         8     'h0  
  awsize   integral         3     'h0  
  awburst  integral         2     'h0  
  awprot   integral         3     'h0  
  awcache  integral         4     'h3  
  awvalid  integral         1     'h0  
  awready  integral         1     'h0  
  wdata    integral         32    'h0  
  wstrb    integral         4     'h0  
  wlast    integral         1     'h0  
  wvalid   integral         1     'h0  
  wready   integral         1     'h0  
  bvalid   integral         1     'h0  
  bready   integral         1     'h0  
  bresp    integral         2     'h0  
---------------------------------------

UVM_INFO /home/xe-user106/10x-Engineers/SOC-DV/TCP/axi_dma_verification/verif/axi_coverage_monitor/axi_monitor.sv(94) @ 50000: uvm_test_top.env.axi_cov_mon [axi_monitor] Transaction Collected :
---------------------------------------
Name       Type             Size  Value
---------------------------------------
item       axi_transaction  -     @1390
  araddr   integral         32    'h0  
  arlen    integral         8     'h0  
  arsize   integral         3     'h0  
  arburst  integral         2     'h0  
  arprot   integral         3     'h0  
  arcache  integral         4     'h3  
  arvalid  integral         1     'h0  
  arready  integral         1     'h0  
  rdata    integral         32    'h0  
  rresp    integral         2     'h0  
  rlast    integral         1     'h0  
  rvalid   integral         1     'h0  
  rready   integral         1     'h0  
  awaddr   integral         32    'h0  
  awlen    integral         8     'h0  
  awsize   integral         3     'h0  
  awburst  integral         2     'h0  
  awprot   integral         3     'h0  
  awcache  integral         4     'h3  
  awvalid  integral         1     'h0  
  awready  integral         1     'h0  
  wdata    integral         32    'h0  
  wstrb    integral         4     'h0  
  wlast    integral         1     'h0  
  wvalid   integral         1     'h0  
  wready   integral         1     'h0  
  bvalid   integral         1     'h0  
  bready   integral         1     'h0  
  bresp    integral         2     'h0  
---------------------------------------

UVM_INFO /home/xe-user106/10x-Engineers/SOC-DV/TCP/axi_dma_verification/verif/environment/coverage_model.sv(31) @ 50000: uvm_test_top.env.axi_lite_cov [\$unit_params_pkg_sv_2076944976 .\axi_lite_coverage::write ] Recieved AXI Lite transaction in Coverage Model
UVM_INFO /home/xe-user106/10x-Engineers/SOC-DV/TCP/axi_dma_verification/verif/stream_uvc/axis_read_monitor.sv(66) @ 50000: uvm_test_top.env.axis_r_agt.monitor [] ///////////////////////////////////////////////////////////////////////
UVM_INFO /home/xe-user106/10x-Engineers/SOC-DV/TCP/axi_dma_verification/verif/stream_uvc/axis_read_monitor.sv(67) @ 50000: uvm_test_top.env.axis_r_agt.monitor [] //                      MM2S READ Monitor                            //
UVM_INFO /home/xe-user106/10x-Engineers/SOC-DV/TCP/axi_dma_verification/verif/stream_uvc/axis_read_monitor.sv(68) @ 50000: uvm_test_top.env.axis_r_agt.monitor [] ///////////////////////////////////////////////////////////////////////
UVM_INFO /home/xe-user106/10x-Engineers/SOC-DV/TCP/axi_dma_verification/verif/stream_uvc/axis_read_monitor.sv(69) @ 50000: uvm_test_top.env.axis_r_agt.monitor [axis_read_monitor] Transaction Collected from AXI-Stream Read Master :
---------------------------------------
Name      Type              Size  Value
---------------------------------------
item      axis_transaction  -     @1468
  tdata   integral          32    'h0  
  tkeep   integral          4     'h0  
  tvalid  integral          1     'h0  
  tready  integral          1     'h0  
  tlast   integral          1     'h0  
---------------------------------------

UVM_INFO /home/xe-user106/10x-Engineers/SOC-DV/TCP/axi_dma_verification/verif/stream_uvc/axis_write_monitor.sv(64) @ 50000: uvm_test_top.env.axis_wr_agt.monitor [] ///////////////////////////////////////////////////////////////////////
UVM_INFO /home/xe-user106/10x-Engineers/SOC-DV/TCP/axi_dma_verification/verif/stream_uvc/axis_write_monitor.sv(65) @ 50000: uvm_test_top.env.axis_wr_agt.monitor [] //                      S2MM WRITE Monitor                            //
UVM_INFO /home/xe-user106/10x-Engineers/SOC-DV/TCP/axi_dma_verification/verif/stream_uvc/axis_write_monitor.sv(66) @ 50000: uvm_test_top.env.axis_wr_agt.monitor [] ///////////////////////////////////////////////////////////////////////
UVM_INFO /home/xe-user106/10x-Engineers/SOC-DV/TCP/axi_dma_verification/verif/stream_uvc/axis_write_monitor.sv(67) @ 50000: uvm_test_top.env.axis_wr_agt.monitor [axis_write_monitor] Transaction Collected from AXI-Stream Write Slave :
---------------------------------------
Name      Type              Size  Value
---------------------------------------
item      axis_transaction  -     @1456
  tdata   integral          32    'h0  
  tkeep   integral          4     'h0  
  tvalid  integral          1     'h0  
  tready  integral          1     'h0  
  tlast   integral          1     'h0  
---------------------------------------

UVM_INFO /home/xe-user106/10x-Engineers/SOC-DV/TCP/axi_dma_verification/verif/stream_uvc/axis_write_monitor.sv(64) @ 70000: uvm_test_top.env.axis_wr_agt.monitor [] ///////////////////////////////////////////////////////////////////////
UVM_INFO /home/xe-user106/10x-Engineers/SOC-DV/TCP/axi_dma_verification/verif/stream_uvc/axis_write_monitor.sv(65) @ 70000: uvm_test_top.env.axis_wr_agt.monitor [] //                      S2MM WRITE Monitor                            //
UVM_INFO /home/xe-user106/10x-Engineers/SOC-DV/TCP/axi_dma_verification/verif/stream_uvc/axis_write_monitor.sv(66) @ 70000: uvm_test_top.env.axis_wr_agt.monitor [] ///////////////////////////////////////////////////////////////////////
UVM_INFO /home/xe-user106/10x-Engineers/SOC-DV/TCP/axi_dma_verification/verif/stream_uvc/axis_write_monitor.sv(67) @ 70000: uvm_test_top.env.axis_wr_agt.monitor [axis_write_monitor] Transaction Collected from AXI-Stream Write Slave :
---------------------------------------
Name      Type              Size  Value
---------------------------------------
item      axis_transaction  -     @1500
  tdata   integral          32    'h0  
  tkeep   integral          4     'h0  
  tvalid  integral          1     'h0  
  tready  integral          1     'h0  
  tlast   integral          1     'h0  
---------------------------------------

UVM_INFO /home/xe-user106/10x-Engineers/SOC-DV/TCP/axi_dma_verification/verif/stream_uvc/axis_read_monitor.sv(66) @ 70000: uvm_test_top.env.axis_r_agt.monitor [] ///////////////////////////////////////////////////////////////////////
UVM_INFO /home/xe-user106/10x-Engineers/SOC-DV/TCP/axi_dma_verification/verif/stream_uvc/axis_read_monitor.sv(67) @ 70000: uvm_test_top.env.axis_r_agt.monitor [] //                      MM2S READ Monitor                            //
UVM_INFO /home/xe-user106/10x-Engineers/SOC-DV/TCP/axi_dma_verification/verif/stream_uvc/axis_read_monitor.sv(68) @ 70000: uvm_test_top.env.axis_r_agt.monitor [] ///////////////////////////////////////////////////////////////////////
UVM_INFO /home/xe-user106/10x-Engineers/SOC-DV/TCP/axi_dma_verification/verif/stream_uvc/axis_read_monitor.sv(69) @ 70000: uvm_test_top.env.axis_r_agt.monitor [axis_read_monitor] Transaction Collected from AXI-Stream Read Master :
---------------------------------------
Name      Type              Size  Value
---------------------------------------
item      axis_transaction  -     @1488
  tdata   integral          32    'h0  
  tkeep   integral          4     'h0  
  tvalid  integral          1     'h0  
  tready  integral          1     'h0  
  tlast   integral          1     'h0  
---------------------------------------

UVM_INFO /home/xe-user106/10x-Engineers/SOC-DV/TCP/axi_dma_verification/verif/environment/coverage_model.sv(31) @ 70000: uvm_test_top.env.axi_lite_cov [\$unit_params_pkg_sv_2076944976 .\axi_lite_coverage::write ] Recieved AXI Lite transaction in Coverage Model
UVM_INFO /home/xe-user106/10x-Engineers/SOC-DV/TCP/axi_dma_verification/verif/axi_coverage_monitor/axi_monitor.sv(94) @ 70000: uvm_test_top.env.axi_cov_mon [axi_monitor] Transaction Collected :
---------------------------------------
Name       Type             Size  Value
---------------------------------------
item       axi_transaction  -     @1390
  araddr   integral         32    'h0  
  arlen    integral         8     'h0  
  arsize   integral         3     'h0  
  arburst  integral         2     'h0  
  arprot   integral         3     'h0  
  arcache  integral         4     'h3  
  arvalid  integral         1     'h0  
  arready  integral         1     'h0  
  rdata    integral         32    'h0  
  rresp    integral         2     'h0  
  rlast    integral         1     'h0  
  rvalid   integral         1     'h0  
  rready   integral         1     'h0  
  awaddr   integral         32    'h0  
  awlen    integral         8     'h0  
  awsize   integral         3     'h0  
  awburst  integral         2     'h0  
  awprot   integral         3     'h0  
  awcache  integral         4     'h3  
  awvalid  integral         1     'h0  
  awready  integral         1     'h0  
  wdata    integral         32    'h0  
  wstrb    integral         4     'h0  
  wlast    integral         1     'h0  
  wvalid   integral         1     'h0  
  wready   integral         1     'h0  
  bvalid   integral         1     'h0  
  bready   integral         1     'h0  
  bresp    integral         2     'h0  
---------------------------------------

UVM_INFO /home/xe-user106/10x-Engineers/SOC-DV/TCP/axi_dma_verification/verif/axi_coverage_monitor/axi_monitor.sv(94) @ 90000: uvm_test_top.env.axi_cov_mon [axi_monitor] Transaction Collected :
---------------------------------------
Name       Type             Size  Value
---------------------------------------
item       axi_transaction  -     @1390
  araddr   integral         32    'h0  
  arlen    integral         8     'h0  
  arsize   integral         3     'h0  
  arburst  integral         2     'h0  
  arprot   integral         3     'h0  
  arcache  integral         4     'h3  
  arvalid  integral         1     'h0  
  arready  integral         1     'h0  
  rdata    integral         32    'h0  
  rresp    integral         2     'h0  
  rlast    integral         1     'h0  
  rvalid   integral         1     'h0  
  rready   integral         1     'h0  
  awaddr   integral         32    'h0  
  awlen    integral         8     'h0  
  awsize   integral         3     'h0  
  awburst  integral         2     'h0  
  awprot   integral         3     'h0  
  awcache  integral         4     'h3  
  awvalid  integral         1     'h0  
  awready  integral         1     'h0  
  wdata    integral         32    'h0  
  wstrb    integral         4     'h0  
  wlast    integral         1     'h0  
  wvalid   integral         1     'h0  
  wready   integral         1     'h0  
  bvalid   integral         1     'h0  
  bready   integral         1     'h0  
  bresp    integral         2     'h0  
---------------------------------------

UVM_INFO /home/xe-user106/10x-Engineers/SOC-DV/TCP/axi_dma_verification/verif/environment/coverage_model.sv(31) @ 90000: uvm_test_top.env.axi_lite_cov [\$unit_params_pkg_sv_2076944976 .\axi_lite_coverage::write ] Recieved AXI Lite transaction in Coverage Model
UVM_INFO /home/xe-user106/10x-Engineers/SOC-DV/TCP/axi_dma_verification/verif/stream_uvc/axis_read_monitor.sv(66) @ 90000: uvm_test_top.env.axis_r_agt.monitor [] ///////////////////////////////////////////////////////////////////////
UVM_INFO /home/xe-user106/10x-Engineers/SOC-DV/TCP/axi_dma_verification/verif/stream_uvc/axis_read_monitor.sv(67) @ 90000: uvm_test_top.env.axis_r_agt.monitor [] //                      MM2S READ Monitor                            //
UVM_INFO /home/xe-user106/10x-Engineers/SOC-DV/TCP/axi_dma_verification/verif/stream_uvc/axis_read_monitor.sv(68) @ 90000: uvm_test_top.env.axis_r_agt.monitor [] ///////////////////////////////////////////////////////////////////////
UVM_INFO /home/xe-user106/10x-Engineers/SOC-DV/TCP/axi_dma_verification/verif/stream_uvc/axis_read_monitor.sv(69) @ 90000: uvm_test_top.env.axis_r_agt.monitor [axis_read_monitor] Transaction Collected from AXI-Stream Read Master :
---------------------------------------
Name      Type              Size  Value
---------------------------------------
item      axis_transaction  -     @1524
  tdata   integral          32    'h0  
  tkeep   integral          4     'h0  
  tvalid  integral          1     'h0  
  tready  integral          1     'h0  
  tlast   integral          1     'h0  
---------------------------------------

UVM_INFO /home/xe-user106/10x-Engineers/SOC-DV/TCP/axi_dma_verification/verif/stream_uvc/axis_write_monitor.sv(64) @ 90000: uvm_test_top.env.axis_wr_agt.monitor [] ///////////////////////////////////////////////////////////////////////
UVM_INFO /home/xe-user106/10x-Engineers/SOC-DV/TCP/axi_dma_verification/verif/stream_uvc/axis_write_monitor.sv(65) @ 90000: uvm_test_top.env.axis_wr_agt.monitor [] //                      S2MM WRITE Monitor                            //
UVM_INFO /home/xe-user106/10x-Engineers/SOC-DV/TCP/axi_dma_verification/verif/stream_uvc/axis_write_monitor.sv(66) @ 90000: uvm_test_top.env.axis_wr_agt.monitor [] ///////////////////////////////////////////////////////////////////////
UVM_INFO /home/xe-user106/10x-Engineers/SOC-DV/TCP/axi_dma_verification/verif/stream_uvc/axis_write_monitor.sv(67) @ 90000: uvm_test_top.env.axis_wr_agt.monitor [axis_write_monitor] Transaction Collected from AXI-Stream Write Slave :
---------------------------------------
Name      Type              Size  Value
---------------------------------------
item      axis_transaction  -     @1512
  tdata   integral          32    'h0  
  tkeep   integral          4     'h0  
  tvalid  integral          1     'h0  
  tready  integral          1     'h0  
  tlast   integral          1     'h0  
---------------------------------------

UVM_INFO /home/xe-user106/10x-Engineers/SOC-DV/TCP/axi_dma_verification/verif/stream_uvc/axis_write_monitor.sv(64) @ 110000: uvm_test_top.env.axis_wr_agt.monitor [] ///////////////////////////////////////////////////////////////////////
UVM_INFO /home/xe-user106/10x-Engineers/SOC-DV/TCP/axi_dma_verification/verif/stream_uvc/axis_write_monitor.sv(65) @ 110000: uvm_test_top.env.axis_wr_agt.monitor [] //                      S2MM WRITE Monitor                            //
UVM_INFO /home/xe-user106/10x-Engineers/SOC-DV/TCP/axi_dma_verification/verif/stream_uvc/axis_write_monitor.sv(66) @ 110000: uvm_test_top.env.axis_wr_agt.monitor [] ///////////////////////////////////////////////////////////////////////
UVM_INFO /home/xe-user106/10x-Engineers/SOC-DV/TCP/axi_dma_verification/verif/stream_uvc/axis_write_monitor.sv(67) @ 110000: uvm_test_top.env.axis_wr_agt.monitor [axis_write_monitor] Transaction Collected from AXI-Stream Write Slave :
---------------------------------------
Name      Type              Size  Value
---------------------------------------
item      axis_transaction  -     @1556
  tdata   integral          32    'h0  
  tkeep   integral          4     'h0  
  tvalid  integral          1     'h0  
  tready  integral          1     'h0  
  tlast   integral          1     'h0  
---------------------------------------

UVM_INFO /home/xe-user106/10x-Engineers/SOC-DV/TCP/axi_dma_verification/verif/stream_uvc/axis_read_monitor.sv(66) @ 110000: uvm_test_top.env.axis_r_agt.monitor [] ///////////////////////////////////////////////////////////////////////
UVM_INFO /home/xe-user106/10x-Engineers/SOC-DV/TCP/axi_dma_verification/verif/stream_uvc/axis_read_monitor.sv(67) @ 110000: uvm_test_top.env.axis_r_agt.monitor [] //                      MM2S READ Monitor                            //
UVM_INFO /home/xe-user106/10x-Engineers/SOC-DV/TCP/axi_dma_verification/verif/stream_uvc/axis_read_monitor.sv(68) @ 110000: uvm_test_top.env.axis_r_agt.monitor [] ///////////////////////////////////////////////////////////////////////
UVM_INFO /home/xe-user106/10x-Engineers/SOC-DV/TCP/axi_dma_verification/verif/stream_uvc/axis_read_monitor.sv(69) @ 110000: uvm_test_top.env.axis_r_agt.monitor [axis_read_monitor] Transaction Collected from AXI-Stream Read Master :
---------------------------------------
Name      Type              Size  Value
---------------------------------------
item      axis_transaction  -     @1544
  tdata   integral          32    'h0  
  tkeep   integral          4     'h0  
  tvalid  integral          1     'h0  
  tready  integral          1     'h0  
  tlast   integral          1     'h0  
---------------------------------------

UVM_INFO /home/xe-user106/10x-Engineers/SOC-DV/TCP/axi_dma_verification/verif/environment/coverage_model.sv(31) @ 110000: uvm_test_top.env.axi_lite_cov [\$unit_params_pkg_sv_2076944976 .\axi_lite_coverage::write ] Recieved AXI Lite transaction in Coverage Model
UVM_INFO /home/xe-user106/10x-Engineers/SOC-DV/TCP/axi_dma_verification/verif/axi_coverage_monitor/axi_monitor.sv(94) @ 110000: uvm_test_top.env.axi_cov_mon [axi_monitor] Transaction Collected :
---------------------------------------
Name       Type             Size  Value
---------------------------------------
item       axi_transaction  -     @1390
  araddr   integral         32    'h0  
  arlen    integral         8     'h0  
  arsize   integral         3     'h0  
  arburst  integral         2     'h0  
  arprot   integral         3     'h0  
  arcache  integral         4     'h3  
  arvalid  integral         1     'h0  
  arready  integral         1     'h0  
  rdata    integral         32    'h0  
  rresp    integral         2     'h0  
  rlast    integral         1     'h0  
  rvalid   integral         1     'h0  
  rready   integral         1     'h0  
  awaddr   integral         32    'h0  
  awlen    integral         8     'h0  
  awsize   integral         3     'h0  
  awburst  integral         2     'h0  
  awprot   integral         3     'h0  
  awcache  integral         4     'h3  
  awvalid  integral         1     'h0  
  awready  integral         1     'h0  
  wdata    integral         32    'h0  
  wstrb    integral         4     'h0  
  wlast    integral         1     'h0  
  wvalid   integral         1     'h0  
  wready   integral         1     'h0  
  bvalid   integral         1     'h0  
  bready   integral         1     'h0  
  bresp    integral         2     'h0  
---------------------------------------

UVM_INFO /home/xe-user106/10x-Engineers/SOC-DV/TCP/axi_dma_verification/verif/axi_coverage_monitor/axi_monitor.sv(94) @ 130000: uvm_test_top.env.axi_cov_mon [axi_monitor] Transaction Collected :
---------------------------------------
Name       Type             Size  Value
---------------------------------------
item       axi_transaction  -     @1390
  araddr   integral         32    'h0  
  arlen    integral         8     'h0  
  arsize   integral         3     'h0  
  arburst  integral         2     'h0  
  arprot   integral         3     'h0  
  arcache  integral         4     'h3  
  arvalid  integral         1     'h0  
  arready  integral         1     'h0  
  rdata    integral         32    'h0  
  rresp    integral         2     'h0  
  rlast    integral         1     'h0  
  rvalid   integral         1     'h0  
  rready   integral         1     'h0  
  awaddr   integral         32    'h0  
  awlen    integral         8     'h0  
  awsize   integral         3     'h0  
  awburst  integral         2     'h0  
  awprot   integral         3     'h0  
  awcache  integral         4     'h3  
  awvalid  integral         1     'h0  
  awready  integral         1     'h0  
  wdata    integral         32    'h0  
  wstrb    integral         4     'h0  
  wlast    integral         1     'h0  
  wvalid   integral         1     'h0  
  wready   integral         1     'h0  
  bvalid   integral         1     'h0  
  bready   integral         1     'h0  
  bresp    integral         2     'h0  
---------------------------------------

UVM_INFO /home/xe-user106/10x-Engineers/SOC-DV/TCP/axi_dma_verification/verif/environment/coverage_model.sv(31) @ 130000: uvm_test_top.env.axi_lite_cov [\$unit_params_pkg_sv_2076944976 .\axi_lite_coverage::write ] Recieved AXI Lite transaction in Coverage Model
UVM_INFO /home/xe-user106/10x-Engineers/SOC-DV/TCP/axi_dma_verification/verif/stream_uvc/axis_read_monitor.sv(66) @ 130000: uvm_test_top.env.axis_r_agt.monitor [] ///////////////////////////////////////////////////////////////////////
UVM_INFO /home/xe-user106/10x-Engineers/SOC-DV/TCP/axi_dma_verification/verif/stream_uvc/axis_read_monitor.sv(67) @ 130000: uvm_test_top.env.axis_r_agt.monitor [] //                      MM2S READ Monitor                            //
UVM_INFO /home/xe-user106/10x-Engineers/SOC-DV/TCP/axi_dma_verification/verif/stream_uvc/axis_read_monitor.sv(68) @ 130000: uvm_test_top.env.axis_r_agt.monitor [] ///////////////////////////////////////////////////////////////////////
UVM_INFO /home/xe-user106/10x-Engineers/SOC-DV/TCP/axi_dma_verification/verif/stream_uvc/axis_read_monitor.sv(69) @ 130000: uvm_test_top.env.axis_r_agt.monitor [axis_read_monitor] Transaction Collected from AXI-Stream Read Master :
---------------------------------------
Name      Type              Size  Value
---------------------------------------
item      axis_transaction  -     @1580
  tdata   integral          32    'h0  
  tkeep   integral          4     'h0  
  tvalid  integral          1     'h0  
  tready  integral          1     'h0  
  tlast   integral          1     'h0  
---------------------------------------

UVM_INFO /home/xe-user106/10x-Engineers/SOC-DV/TCP/axi_dma_verification/verif/stream_uvc/axis_write_monitor.sv(64) @ 130000: uvm_test_top.env.axis_wr_agt.monitor [] ///////////////////////////////////////////////////////////////////////
UVM_INFO /home/xe-user106/10x-Engineers/SOC-DV/TCP/axi_dma_verification/verif/stream_uvc/axis_write_monitor.sv(65) @ 130000: uvm_test_top.env.axis_wr_agt.monitor [] //                      S2MM WRITE Monitor                            //
UVM_INFO /home/xe-user106/10x-Engineers/SOC-DV/TCP/axi_dma_verification/verif/stream_uvc/axis_write_monitor.sv(66) @ 130000: uvm_test_top.env.axis_wr_agt.monitor [] ///////////////////////////////////////////////////////////////////////
UVM_INFO /home/xe-user106/10x-Engineers/SOC-DV/TCP/axi_dma_verification/verif/stream_uvc/axis_write_monitor.sv(67) @ 130000: uvm_test_top.env.axis_wr_agt.monitor [axis_write_monitor] Transaction Collected from AXI-Stream Write Slave :
---------------------------------------
Name      Type              Size  Value
---------------------------------------
item      axis_transaction  -     @1568
  tdata   integral          32    'h0  
  tkeep   integral          4     'h0  
  tvalid  integral          1     'h0  
  tready  integral          1     'h0  
  tlast   integral          1     'h0  
---------------------------------------

UVM_INFO /home/xe-user106/10x-Engineers/SOC-DV/TCP/axi_dma_verification/verif/stream_uvc/axis_write_monitor.sv(64) @ 150000: uvm_test_top.env.axis_wr_agt.monitor [] ///////////////////////////////////////////////////////////////////////
UVM_INFO /home/xe-user106/10x-Engineers/SOC-DV/TCP/axi_dma_verification/verif/stream_uvc/axis_write_monitor.sv(65) @ 150000: uvm_test_top.env.axis_wr_agt.monitor [] //                      S2MM WRITE Monitor                            //
UVM_INFO /home/xe-user106/10x-Engineers/SOC-DV/TCP/axi_dma_verification/verif/stream_uvc/axis_write_monitor.sv(66) @ 150000: uvm_test_top.env.axis_wr_agt.monitor [] ///////////////////////////////////////////////////////////////////////
UVM_INFO /home/xe-user106/10x-Engineers/SOC-DV/TCP/axi_dma_verification/verif/stream_uvc/axis_write_monitor.sv(67) @ 150000: uvm_test_top.env.axis_wr_agt.monitor [axis_write_monitor] Transaction Collected from AXI-Stream Write Slave :
---------------------------------------
Name      Type              Size  Value
---------------------------------------
item      axis_transaction  -     @1612
  tdata   integral          32    'h0  
  tkeep   integral          4     'h0  
  tvalid  integral          1     'h0  
  tready  integral          1     'h0  
  tlast   integral          1     'h0  
---------------------------------------

UVM_INFO /home/xe-user106/10x-Engineers/SOC-DV/TCP/axi_dma_verification/verif/stream_uvc/axis_read_monitor.sv(66) @ 150000: uvm_test_top.env.axis_r_agt.monitor [] ///////////////////////////////////////////////////////////////////////
UVM_INFO /home/xe-user106/10x-Engineers/SOC-DV/TCP/axi_dma_verification/verif/stream_uvc/axis_read_monitor.sv(67) @ 150000: uvm_test_top.env.axis_r_agt.monitor [] //                      MM2S READ Monitor                            //
UVM_INFO /home/xe-user106/10x-Engineers/SOC-DV/TCP/axi_dma_verification/verif/stream_uvc/axis_read_monitor.sv(68) @ 150000: uvm_test_top.env.axis_r_agt.monitor [] ///////////////////////////////////////////////////////////////////////
UVM_INFO /home/xe-user106/10x-Engineers/SOC-DV/TCP/axi_dma_verification/verif/stream_uvc/axis_read_monitor.sv(69) @ 150000: uvm_test_top.env.axis_r_agt.monitor [axis_read_monitor] Transaction Collected from AXI-Stream Read Master :
---------------------------------------
Name      Type              Size  Value
---------------------------------------
item      axis_transaction  -     @1600
  tdata   integral          32    'h0  
  tkeep   integral          4     'h0  
  tvalid  integral          1     'h0  
  tready  integral          1     'h0  
  tlast   integral          1     'h0  
---------------------------------------

UVM_INFO /home/xe-user106/10x-Engineers/SOC-DV/TCP/axi_dma_verification/verif/environment/coverage_model.sv(31) @ 150000: uvm_test_top.env.axi_lite_cov [\$unit_params_pkg_sv_2076944976 .\axi_lite_coverage::write ] Recieved AXI Lite transaction in Coverage Model
UVM_INFO /home/xe-user106/10x-Engineers/SOC-DV/TCP/axi_dma_verification/verif/axi_coverage_monitor/axi_monitor.sv(94) @ 150000: uvm_test_top.env.axi_cov_mon [axi_monitor] Transaction Collected :
---------------------------------------
Name       Type             Size  Value
---------------------------------------
item       axi_transaction  -     @1390
  araddr   integral         32    'h0  
  arlen    integral         8     'h0  
  arsize   integral         3     'h0  
  arburst  integral         2     'h0  
  arprot   integral         3     'h0  
  arcache  integral         4     'h3  
  arvalid  integral         1     'h0  
  arready  integral         1     'h0  
  rdata    integral         32    'h0  
  rresp    integral         2     'h0  
  rlast    integral         1     'h0  
  rvalid   integral         1     'h0  
  rready   integral         1     'h0  
  awaddr   integral         32    'h0  
  awlen    integral         8     'h0  
  awsize   integral         3     'h0  
  awburst  integral         2     'h0  
  awprot   integral         3     'h0  
  awcache  integral         4     'h3  
  awvalid  integral         1     'h0  
  awready  integral         1     'h0  
  wdata    integral         32    'h0  
  wstrb    integral         4     'h0  
  wlast    integral         1     'h0  
  wvalid   integral         1     'h0  
  wready   integral         1     'h0  
  bvalid   integral         1     'h0  
  bready   integral         1     'h0  
  bresp    integral         2     'h0  
---------------------------------------

UVM_INFO /home/xe-user106/10x-Engineers/SOC-DV/TCP/axi_dma_verification/verif/axi_coverage_monitor/axi_monitor.sv(94) @ 170000: uvm_test_top.env.axi_cov_mon [axi_monitor] Transaction Collected :
---------------------------------------
Name       Type             Size  Value
---------------------------------------
item       axi_transaction  -     @1390
  araddr   integral         32    'h0  
  arlen    integral         8     'h0  
  arsize   integral         3     'h0  
  arburst  integral         2     'h0  
  arprot   integral         3     'h0  
  arcache  integral         4     'h3  
  arvalid  integral         1     'h0  
  arready  integral         1     'h0  
  rdata    integral         32    'h0  
  rresp    integral         2     'h0  
  rlast    integral         1     'h0  
  rvalid   integral         1     'h0  
  rready   integral         1     'h0  
  awaddr   integral         32    'h0  
  awlen    integral         8     'h0  
  awsize   integral         3     'h0  
  awburst  integral         2     'h0  
  awprot   integral         3     'h0  
  awcache  integral         4     'h3  
  awvalid  integral         1     'h0  
  awready  integral         1     'h0  
  wdata    integral         32    'h0  
  wstrb    integral         4     'h0  
  wlast    integral         1     'h0  
  wvalid   integral         1     'h0  
  wready   integral         1     'h0  
  bvalid   integral         1     'h0  
  bready   integral         1     'h0  
  bresp    integral         2     'h0  
---------------------------------------

UVM_INFO /home/xe-user106/10x-Engineers/SOC-DV/TCP/axi_dma_verification/verif/environment/coverage_model.sv(31) @ 170000: uvm_test_top.env.axi_lite_cov [\$unit_params_pkg_sv_2076944976 .\axi_lite_coverage::write ] Recieved AXI Lite transaction in Coverage Model
UVM_INFO /home/xe-user106/10x-Engineers/SOC-DV/TCP/axi_dma_verification/verif/stream_uvc/axis_read_monitor.sv(66) @ 170000: uvm_test_top.env.axis_r_agt.monitor [] ///////////////////////////////////////////////////////////////////////
UVM_INFO /home/xe-user106/10x-Engineers/SOC-DV/TCP/axi_dma_verification/verif/stream_uvc/axis_read_monitor.sv(67) @ 170000: uvm_test_top.env.axis_r_agt.monitor [] //                      MM2S READ Monitor                            //
UVM_INFO /home/xe-user106/10x-Engineers/SOC-DV/TCP/axi_dma_verification/verif/stream_uvc/axis_read_monitor.sv(68) @ 170000: uvm_test_top.env.axis_r_agt.monitor [] ///////////////////////////////////////////////////////////////////////
UVM_INFO /home/xe-user106/10x-Engineers/SOC-DV/TCP/axi_dma_verification/verif/stream_uvc/axis_read_monitor.sv(69) @ 170000: uvm_test_top.env.axis_r_agt.monitor [axis_read_monitor] Transaction Collected from AXI-Stream Read Master :
---------------------------------------
Name      Type              Size  Value
---------------------------------------
item      axis_transaction  -     @1636
  tdata   integral          32    'h0  
  tkeep   integral          4     'h0  
  tvalid  integral          1     'h0  
  tready  integral          1     'h0  
  tlast   integral          1     'h0  
---------------------------------------

UVM_INFO /home/xe-user106/10x-Engineers/SOC-DV/TCP/axi_dma_verification/verif/stream_uvc/axis_write_monitor.sv(64) @ 170000: uvm_test_top.env.axis_wr_agt.monitor [] ///////////////////////////////////////////////////////////////////////
UVM_INFO /home/xe-user106/10x-Engineers/SOC-DV/TCP/axi_dma_verification/verif/stream_uvc/axis_write_monitor.sv(65) @ 170000: uvm_test_top.env.axis_wr_agt.monitor [] //                      S2MM WRITE Monitor                            //
UVM_INFO /home/xe-user106/10x-Engineers/SOC-DV/TCP/axi_dma_verification/verif/stream_uvc/axis_write_monitor.sv(66) @ 170000: uvm_test_top.env.axis_wr_agt.monitor [] ///////////////////////////////////////////////////////////////////////
UVM_INFO /home/xe-user106/10x-Engineers/SOC-DV/TCP/axi_dma_verification/verif/stream_uvc/axis_write_monitor.sv(67) @ 170000: uvm_test_top.env.axis_wr_agt.monitor [axis_write_monitor] Transaction Collected from AXI-Stream Write Slave :
---------------------------------------
Name      Type              Size  Value
---------------------------------------
item      axis_transaction  -     @1624
  tdata   integral          32    'h0  
  tkeep   integral          4     'h0  
  tvalid  integral          1     'h0  
  tready  integral          1     'h0  
  tlast   integral          1     'h0  
---------------------------------------

UVM_INFO /home/xe-user106/10x-Engineers/SOC-DV/TCP/axi_dma_verification/verif/stream_uvc/axis_write_monitor.sv(64) @ 190000: uvm_test_top.env.axis_wr_agt.monitor [] ///////////////////////////////////////////////////////////////////////
UVM_INFO /home/xe-user106/10x-Engineers/SOC-DV/TCP/axi_dma_verification/verif/stream_uvc/axis_write_monitor.sv(65) @ 190000: uvm_test_top.env.axis_wr_agt.monitor [] //                      S2MM WRITE Monitor                            //
UVM_INFO /home/xe-user106/10x-Engineers/SOC-DV/TCP/axi_dma_verification/verif/stream_uvc/axis_write_monitor.sv(66) @ 190000: uvm_test_top.env.axis_wr_agt.monitor [] ///////////////////////////////////////////////////////////////////////
UVM_INFO /home/xe-user106/10x-Engineers/SOC-DV/TCP/axi_dma_verification/verif/stream_uvc/axis_write_monitor.sv(67) @ 190000: uvm_test_top.env.axis_wr_agt.monitor [axis_write_monitor] Transaction Collected from AXI-Stream Write Slave :
---------------------------------------
Name      Type              Size  Value
---------------------------------------
item      axis_transaction  -     @1668
  tdata   integral          32    'h0  
  tkeep   integral          4     'h0  
  tvalid  integral          1     'h0  
  tready  integral          1     'h0  
  tlast   integral          1     'h0  
---------------------------------------

UVM_INFO /home/xe-user106/10x-Engineers/SOC-DV/TCP/axi_dma_verification/verif/stream_uvc/axis_read_monitor.sv(66) @ 190000: uvm_test_top.env.axis_r_agt.monitor [] ///////////////////////////////////////////////////////////////////////
UVM_INFO /home/xe-user106/10x-Engineers/SOC-DV/TCP/axi_dma_verification/verif/stream_uvc/axis_read_monitor.sv(67) @ 190000: uvm_test_top.env.axis_r_agt.monitor [] //                      MM2S READ Monitor                            //
UVM_INFO /home/xe-user106/10x-Engineers/SOC-DV/TCP/axi_dma_verification/verif/stream_uvc/axis_read_monitor.sv(68) @ 190000: uvm_test_top.env.axis_r_agt.monitor [] ///////////////////////////////////////////////////////////////////////
UVM_INFO /home/xe-user106/10x-Engineers/SOC-DV/TCP/axi_dma_verification/verif/stream_uvc/axis_read_monitor.sv(69) @ 190000: uvm_test_top.env.axis_r_agt.monitor [axis_read_monitor] Transaction Collected from AXI-Stream Read Master :
---------------------------------------
Name      Type              Size  Value
---------------------------------------
item      axis_transaction  -     @1656
  tdata   integral          32    'h0  
  tkeep   integral          4     'h0  
  tvalid  integral          1     'h0  
  tready  integral          1     'h0  
  tlast   integral          1     'h0  
---------------------------------------

UVM_INFO /home/xe-user106/10x-Engineers/SOC-DV/TCP/axi_dma_verification/verif/environment/coverage_model.sv(31) @ 190000: uvm_test_top.env.axi_lite_cov [\$unit_params_pkg_sv_2076944976 .\axi_lite_coverage::write ] Recieved AXI Lite transaction in Coverage Model
UVM_INFO /home/xe-user106/10x-Engineers/SOC-DV/TCP/axi_dma_verification/verif/axi_coverage_monitor/axi_monitor.sv(94) @ 190000: uvm_test_top.env.axi_cov_mon [axi_monitor] Transaction Collected :
---------------------------------------
Name       Type             Size  Value
---------------------------------------
item       axi_transaction  -     @1390
  araddr   integral         32    'h0  
  arlen    integral         8     'h0  
  arsize   integral         3     'h0  
  arburst  integral         2     'h0  
  arprot   integral         3     'h0  
  arcache  integral         4     'h3  
  arvalid  integral         1     'h0  
  arready  integral         1     'h0  
  rdata    integral         32    'h0  
  rresp    integral         2     'h0  
  rlast    integral         1     'h0  
  rvalid   integral         1     'h0  
  rready   integral         1     'h0  
  awaddr   integral         32    'h0  
  awlen    integral         8     'h0  
  awsize   integral         3     'h0  
  awburst  integral         2     'h0  
  awprot   integral         3     'h0  
  awcache  integral         4     'h3  
  awvalid  integral         1     'h0  
  awready  integral         1     'h0  
  wdata    integral         32    'h0  
  wstrb    integral         4     'h0  
  wlast    integral         1     'h0  
  wvalid   integral         1     'h0  
  wready   integral         1     'h0  
  bvalid   integral         1     'h0  
  bready   integral         1     'h0  
  bresp    integral         2     'h0  
---------------------------------------

UVM_INFO /home/xe-user106/10x-Engineers/SOC-DV/TCP/axi_dma_verification/verif/axi_coverage_monitor/axi_monitor.sv(94) @ 210000: uvm_test_top.env.axi_cov_mon [axi_monitor] Transaction Collected :
---------------------------------------
Name       Type             Size  Value
---------------------------------------
item       axi_transaction  -     @1390
  araddr   integral         32    'h0  
  arlen    integral         8     'h0  
  arsize   integral         3     'h0  
  arburst  integral         2     'h0  
  arprot   integral         3     'h0  
  arcache  integral         4     'h3  
  arvalid  integral         1     'h0  
  arready  integral         1     'h0  
  rdata    integral         32    'h0  
  rresp    integral         2     'h0  
  rlast    integral         1     'h0  
  rvalid   integral         1     'h0  
  rready   integral         1     'h0  
  awaddr   integral         32    'h0  
  awlen    integral         8     'h0  
  awsize   integral         3     'h0  
  awburst  integral         2     'h0  
  awprot   integral         3     'h0  
  awcache  integral         4     'h3  
  awvalid  integral         1     'h0  
  awready  integral         1     'h0  
  wdata    integral         32    'h0  
  wstrb    integral         4     'h0  
  wlast    integral         1     'h0  
  wvalid   integral         1     'h0  
  wready   integral         1     'h0  
  bvalid   integral         1     'h0  
  bready   integral         1     'h0  
  bresp    integral         2     'h0  
---------------------------------------

UVM_INFO /home/xe-user106/10x-Engineers/SOC-DV/TCP/axi_dma_verification/verif/environment/coverage_model.sv(31) @ 210000: uvm_test_top.env.axi_lite_cov [\$unit_params_pkg_sv_2076944976 .\axi_lite_coverage::write ] Recieved AXI Lite transaction in Coverage Model
UVM_INFO /home/xe-user106/10x-Engineers/SOC-DV/TCP/axi_dma_verification/verif/stream_uvc/axis_read_monitor.sv(66) @ 210000: uvm_test_top.env.axis_r_agt.monitor [] ///////////////////////////////////////////////////////////////////////
UVM_INFO /home/xe-user106/10x-Engineers/SOC-DV/TCP/axi_dma_verification/verif/stream_uvc/axis_read_monitor.sv(67) @ 210000: uvm_test_top.env.axis_r_agt.monitor [] //                      MM2S READ Monitor                            //
UVM_INFO /home/xe-user106/10x-Engineers/SOC-DV/TCP/axi_dma_verification/verif/stream_uvc/axis_read_monitor.sv(68) @ 210000: uvm_test_top.env.axis_r_agt.monitor [] ///////////////////////////////////////////////////////////////////////
UVM_INFO /home/xe-user106/10x-Engineers/SOC-DV/TCP/axi_dma_verification/verif/stream_uvc/axis_read_monitor.sv(69) @ 210000: uvm_test_top.env.axis_r_agt.monitor [axis_read_monitor] Transaction Collected from AXI-Stream Read Master :
---------------------------------------
Name      Type              Size  Value
---------------------------------------
item      axis_transaction  -     @1692
  tdata   integral          32    'h0  
  tkeep   integral          4     'h0  
  tvalid  integral          1     'h0  
  tready  integral          1     'h0  
  tlast   integral          1     'h0  
---------------------------------------

UVM_INFO /home/xe-user106/10x-Engineers/SOC-DV/TCP/axi_dma_verification/verif/stream_uvc/axis_write_monitor.sv(64) @ 210000: uvm_test_top.env.axis_wr_agt.monitor [] ///////////////////////////////////////////////////////////////////////
UVM_INFO /home/xe-user106/10x-Engineers/SOC-DV/TCP/axi_dma_verification/verif/stream_uvc/axis_write_monitor.sv(65) @ 210000: uvm_test_top.env.axis_wr_agt.monitor [] //                      S2MM WRITE Monitor                            //
UVM_INFO /home/xe-user106/10x-Engineers/SOC-DV/TCP/axi_dma_verification/verif/stream_uvc/axis_write_monitor.sv(66) @ 210000: uvm_test_top.env.axis_wr_agt.monitor [] ///////////////////////////////////////////////////////////////////////
UVM_INFO /home/xe-user106/10x-Engineers/SOC-DV/TCP/axi_dma_verification/verif/stream_uvc/axis_write_monitor.sv(67) @ 210000: uvm_test_top.env.axis_wr_agt.monitor [axis_write_monitor] Transaction Collected from AXI-Stream Write Slave :
---------------------------------------
Name      Type              Size  Value
---------------------------------------
item      axis_transaction  -     @1680
  tdata   integral          32    'h0  
  tkeep   integral          4     'h0  
  tvalid  integral          1     'h0  
  tready  integral          1     'h0  
  tlast   integral          1     'h0  
---------------------------------------

UVM_INFO /home/xe-user106/10x-Engineers/SOC-DV/TCP/axi_dma_verification/verif/stream_uvc/axis_write_monitor.sv(64) @ 230000: uvm_test_top.env.axis_wr_agt.monitor [] ///////////////////////////////////////////////////////////////////////
UVM_INFO /home/xe-user106/10x-Engineers/SOC-DV/TCP/axi_dma_verification/verif/stream_uvc/axis_write_monitor.sv(65) @ 230000: uvm_test_top.env.axis_wr_agt.monitor [] //                      S2MM WRITE Monitor                            //
UVM_INFO /home/xe-user106/10x-Engineers/SOC-DV/TCP/axi_dma_verification/verif/stream_uvc/axis_write_monitor.sv(66) @ 230000: uvm_test_top.env.axis_wr_agt.monitor [] ///////////////////////////////////////////////////////////////////////
UVM_INFO /home/xe-user106/10x-Engineers/SOC-DV/TCP/axi_dma_verification/verif/stream_uvc/axis_write_monitor.sv(67) @ 230000: uvm_test_top.env.axis_wr_agt.monitor [axis_write_monitor] Transaction Collected from AXI-Stream Write Slave :
---------------------------------------
Name      Type              Size  Value
---------------------------------------
item      axis_transaction  -     @1724
  tdata   integral          32    'h0  
  tkeep   integral          4     'h0  
  tvalid  integral          1     'h0  
  tready  integral          1     'h0  
  tlast   integral          1     'h0  
---------------------------------------

UVM_INFO /home/xe-user106/10x-Engineers/SOC-DV/TCP/axi_dma_verification/verif/stream_uvc/axis_read_monitor.sv(66) @ 230000: uvm_test_top.env.axis_r_agt.monitor [] ///////////////////////////////////////////////////////////////////////
UVM_INFO /home/xe-user106/10x-Engineers/SOC-DV/TCP/axi_dma_verification/verif/stream_uvc/axis_read_monitor.sv(67) @ 230000: uvm_test_top.env.axis_r_agt.monitor [] //                      MM2S READ Monitor                            //
UVM_INFO /home/xe-user106/10x-Engineers/SOC-DV/TCP/axi_dma_verification/verif/stream_uvc/axis_read_monitor.sv(68) @ 230000: uvm_test_top.env.axis_r_agt.monitor [] ///////////////////////////////////////////////////////////////////////
UVM_INFO /home/xe-user106/10x-Engineers/SOC-DV/TCP/axi_dma_verification/verif/stream_uvc/axis_read_monitor.sv(69) @ 230000: uvm_test_top.env.axis_r_agt.monitor [axis_read_monitor] Transaction Collected from AXI-Stream Read Master :
---------------------------------------
Name      Type              Size  Value
---------------------------------------
item      axis_transaction  -     @1712
  tdata   integral          32    'h0  
  tkeep   integral          4     'h0  
  tvalid  integral          1     'h0  
  tready  integral          1     'h0  
  tlast   integral          1     'h0  
---------------------------------------

UVM_INFO /home/xe-user106/10x-Engineers/SOC-DV/TCP/axi_dma_verification/verif/environment/coverage_model.sv(31) @ 230000: uvm_test_top.env.axi_lite_cov [\$unit_params_pkg_sv_2076944976 .\axi_lite_coverage::write ] Recieved AXI Lite transaction in Coverage Model
UVM_INFO /home/xe-user106/10x-Engineers/SOC-DV/TCP/axi_dma_verification/verif/axi_coverage_monitor/axi_monitor.sv(94) @ 230000: uvm_test_top.env.axi_cov_mon [axi_monitor] Transaction Collected :
---------------------------------------
Name       Type             Size  Value
---------------------------------------
item       axi_transaction  -     @1390
  araddr   integral         32    'h0  
  arlen    integral         8     'h0  
  arsize   integral         3     'h0  
  arburst  integral         2     'h0  
  arprot   integral         3     'h0  
  arcache  integral         4     'h3  
  arvalid  integral         1     'h0  
  arready  integral         1     'h0  
  rdata    integral         32    'h0  
  rresp    integral         2     'h0  
  rlast    integral         1     'h0  
  rvalid   integral         1     'h0  
  rready   integral         1     'h0  
  awaddr   integral         32    'h0  
  awlen    integral         8     'h0  
  awsize   integral         3     'h0  
  awburst  integral         2     'h0  
  awprot   integral         3     'h0  
  awcache  integral         4     'h3  
  awvalid  integral         1     'h0  
  awready  integral         1     'h0  
  wdata    integral         32    'h0  
  wstrb    integral         4     'h0  
  wlast    integral         1     'h0  
  wvalid   integral         1     'h0  
  wready   integral         1     'h0  
  bvalid   integral         1     'h0  
  bready   integral         1     'h0  
  bresp    integral         2     'h0  
---------------------------------------

UVM_INFO /home/xe-user106/10x-Engineers/SOC-DV/TCP/axi_dma_verification/verif/axi_coverage_monitor/axi_monitor.sv(94) @ 250000: uvm_test_top.env.axi_cov_mon [axi_monitor] Transaction Collected :
---------------------------------------
Name       Type             Size  Value
---------------------------------------
item       axi_transaction  -     @1390
  araddr   integral         32    'h0  
  arlen    integral         8     'h0  
  arsize   integral         3     'h0  
  arburst  integral         2     'h0  
  arprot   integral         3     'h0  
  arcache  integral         4     'h3  
  arvalid  integral         1     'h0  
  arready  integral         1     'h0  
  rdata    integral         32    'h0  
  rresp    integral         2     'h0  
  rlast    integral         1     'h0  
  rvalid   integral         1     'h0  
  rready   integral         1     'h0  
  awaddr   integral         32    'h0  
  awlen    integral         8     'h0  
  awsize   integral         3     'h0  
  awburst  integral         2     'h0  
  awprot   integral         3     'h0  
  awcache  integral         4     'h3  
  awvalid  integral         1     'h0  
  awready  integral         1     'h0  
  wdata    integral         32    'h0  
  wstrb    integral         4     'h0  
  wlast    integral         1     'h0  
  wvalid   integral         1     'h0  
  wready   integral         1     'h0  
  bvalid   integral         1     'h0  
  bready   integral         1     'h0  
  bresp    integral         2     'h0  
---------------------------------------

UVM_INFO /home/xe-user106/10x-Engineers/SOC-DV/TCP/axi_dma_verification/verif/environment/coverage_model.sv(31) @ 250000: uvm_test_top.env.axi_lite_cov [\$unit_params_pkg_sv_2076944976 .\axi_lite_coverage::write ] Recieved AXI Lite transaction in Coverage Model
UVM_INFO /home/xe-user106/10x-Engineers/SOC-DV/TCP/axi_dma_verification/verif/stream_uvc/axis_read_monitor.sv(66) @ 250000: uvm_test_top.env.axis_r_agt.monitor [] ///////////////////////////////////////////////////////////////////////
UVM_INFO /home/xe-user106/10x-Engineers/SOC-DV/TCP/axi_dma_verification/verif/stream_uvc/axis_read_monitor.sv(67) @ 250000: uvm_test_top.env.axis_r_agt.monitor [] //                      MM2S READ Monitor                            //
UVM_INFO /home/xe-user106/10x-Engineers/SOC-DV/TCP/axi_dma_verification/verif/stream_uvc/axis_read_monitor.sv(68) @ 250000: uvm_test_top.env.axis_r_agt.monitor [] ///////////////////////////////////////////////////////////////////////
UVM_INFO /home/xe-user106/10x-Engineers/SOC-DV/TCP/axi_dma_verification/verif/stream_uvc/axis_read_monitor.sv(69) @ 250000: uvm_test_top.env.axis_r_agt.monitor [axis_read_monitor] Transaction Collected from AXI-Stream Read Master :
---------------------------------------
Name      Type              Size  Value
---------------------------------------
item      axis_transaction  -     @1748
  tdata   integral          32    'h0  
  tkeep   integral          4     'h0  
  tvalid  integral          1     'h0  
  tready  integral          1     'h0  
  tlast   integral          1     'h0  
---------------------------------------

UVM_INFO /home/xe-user106/10x-Engineers/SOC-DV/TCP/axi_dma_verification/verif/stream_uvc/axis_write_monitor.sv(64) @ 250000: uvm_test_top.env.axis_wr_agt.monitor [] ///////////////////////////////////////////////////////////////////////
UVM_INFO /home/xe-user106/10x-Engineers/SOC-DV/TCP/axi_dma_verification/verif/stream_uvc/axis_write_monitor.sv(65) @ 250000: uvm_test_top.env.axis_wr_agt.monitor [] //                      S2MM WRITE Monitor                            //
UVM_INFO /home/xe-user106/10x-Engineers/SOC-DV/TCP/axi_dma_verification/verif/stream_uvc/axis_write_monitor.sv(66) @ 250000: uvm_test_top.env.axis_wr_agt.monitor [] ///////////////////////////////////////////////////////////////////////
UVM_INFO /home/xe-user106/10x-Engineers/SOC-DV/TCP/axi_dma_verification/verif/stream_uvc/axis_write_monitor.sv(67) @ 250000: uvm_test_top.env.axis_wr_agt.monitor [axis_write_monitor] Transaction Collected from AXI-Stream Write Slave :
---------------------------------------
Name      Type              Size  Value
---------------------------------------
item      axis_transaction  -     @1736
  tdata   integral          32    'h0  
  tkeep   integral          4     'h0  
  tvalid  integral          1     'h0  
  tready  integral          1     'h0  
  tlast   integral          1     'h0  
---------------------------------------

UVM_INFO /home/xe-user106/10x-Engineers/SOC-DV/TCP/axi_dma_verification/verif/stream_uvc/axis_write_monitor.sv(64) @ 270000: uvm_test_top.env.axis_wr_agt.monitor [] ///////////////////////////////////////////////////////////////////////
UVM_INFO /home/xe-user106/10x-Engineers/SOC-DV/TCP/axi_dma_verification/verif/stream_uvc/axis_write_monitor.sv(65) @ 270000: uvm_test_top.env.axis_wr_agt.monitor [] //                      S2MM WRITE Monitor                            //
UVM_INFO /home/xe-user106/10x-Engineers/SOC-DV/TCP/axi_dma_verification/verif/stream_uvc/axis_write_monitor.sv(66) @ 270000: uvm_test_top.env.axis_wr_agt.monitor [] ///////////////////////////////////////////////////////////////////////
UVM_INFO /home/xe-user106/10x-Engineers/SOC-DV/TCP/axi_dma_verification/verif/stream_uvc/axis_write_monitor.sv(67) @ 270000: uvm_test_top.env.axis_wr_agt.monitor [axis_write_monitor] Transaction Collected from AXI-Stream Write Slave :
---------------------------------------
Name      Type              Size  Value
---------------------------------------
item      axis_transaction  -     @1780
  tdata   integral          32    'h0  
  tkeep   integral          4     'h0  
  tvalid  integral          1     'h0  
  tready  integral          1     'h0  
  tlast   integral          1     'h0  
---------------------------------------

UVM_INFO /home/xe-user106/10x-Engineers/SOC-DV/TCP/axi_dma_verification/verif/stream_uvc/axis_read_monitor.sv(66) @ 270000: uvm_test_top.env.axis_r_agt.monitor [] ///////////////////////////////////////////////////////////////////////
UVM_INFO /home/xe-user106/10x-Engineers/SOC-DV/TCP/axi_dma_verification/verif/stream_uvc/axis_read_monitor.sv(67) @ 270000: uvm_test_top.env.axis_r_agt.monitor [] //                      MM2S READ Monitor                            //
UVM_INFO /home/xe-user106/10x-Engineers/SOC-DV/TCP/axi_dma_verification/verif/stream_uvc/axis_read_monitor.sv(68) @ 270000: uvm_test_top.env.axis_r_agt.monitor [] ///////////////////////////////////////////////////////////////////////
UVM_INFO /home/xe-user106/10x-Engineers/SOC-DV/TCP/axi_dma_verification/verif/stream_uvc/axis_read_monitor.sv(69) @ 270000: uvm_test_top.env.axis_r_agt.monitor [axis_read_monitor] Transaction Collected from AXI-Stream Read Master :
---------------------------------------
Name      Type              Size  Value
---------------------------------------
item      axis_transaction  -     @1768
  tdata   integral          32    'h0  
  tkeep   integral          4     'h0  
  tvalid  integral          1     'h0  
  tready  integral          1     'h0  
  tlast   integral          1     'h0  
---------------------------------------

UVM_INFO /home/xe-user106/10x-Engineers/SOC-DV/TCP/axi_dma_verification/verif/environment/coverage_model.sv(31) @ 270000: uvm_test_top.env.axi_lite_cov [\$unit_params_pkg_sv_2076944976 .\axi_lite_coverage::write ] Recieved AXI Lite transaction in Coverage Model
UVM_INFO /home/xe-user106/10x-Engineers/SOC-DV/TCP/axi_dma_verification/verif/axi_coverage_monitor/axi_monitor.sv(94) @ 270000: uvm_test_top.env.axi_cov_mon [axi_monitor] Transaction Collected :
---------------------------------------
Name       Type             Size  Value
---------------------------------------
item       axi_transaction  -     @1390
  araddr   integral         32    'h0  
  arlen    integral         8     'h0  
  arsize   integral         3     'h0  
  arburst  integral         2     'h0  
  arprot   integral         3     'h0  
  arcache  integral         4     'h3  
  arvalid  integral         1     'h0  
  arready  integral         1     'h0  
  rdata    integral         32    'h0  
  rresp    integral         2     'h0  
  rlast    integral         1     'h0  
  rvalid   integral         1     'h0  
  rready   integral         1     'h0  
  awaddr   integral         32    'h0  
  awlen    integral         8     'h0  
  awsize   integral         3     'h0  
  awburst  integral         2     'h0  
  awprot   integral         3     'h0  
  awcache  integral         4     'h3  
  awvalid  integral         1     'h0  
  awready  integral         1     'h0  
  wdata    integral         32    'h0  
  wstrb    integral         4     'h0  
  wlast    integral         1     'h0  
  wvalid   integral         1     'h0  
  wready   integral         1     'h0  
  bvalid   integral         1     'h0  
  bready   integral         1     'h0  
  bresp    integral         2     'h0  
---------------------------------------

UVM_INFO /home/xe-user106/10x-Engineers/SOC-DV/TCP/axi_dma_verification/verif/axi_coverage_monitor/axi_monitor.sv(94) @ 290000: uvm_test_top.env.axi_cov_mon [axi_monitor] Transaction Collected :
---------------------------------------
Name       Type             Size  Value
---------------------------------------
item       axi_transaction  -     @1390
  araddr   integral         32    'h0  
  arlen    integral         8     'h0  
  arsize   integral         3     'h0  
  arburst  integral         2     'h0  
  arprot   integral         3     'h0  
  arcache  integral         4     'h3  
  arvalid  integral         1     'h0  
  arready  integral         1     'h0  
  rdata    integral         32    'h0  
  rresp    integral         2     'h0  
  rlast    integral         1     'h0  
  rvalid   integral         1     'h0  
  rready   integral         1     'h0  
  awaddr   integral         32    'h0  
  awlen    integral         8     'h0  
  awsize   integral         3     'h0  
  awburst  integral         2     'h0  
  awprot   integral         3     'h0  
  awcache  integral         4     'h3  
  awvalid  integral         1     'h0  
  awready  integral         1     'h0  
  wdata    integral         32    'h0  
  wstrb    integral         4     'h0  
  wlast    integral         1     'h0  
  wvalid   integral         1     'h0  
  wready   integral         1     'h0  
  bvalid   integral         1     'h0  
  bready   integral         1     'h0  
  bresp    integral         2     'h0  
---------------------------------------

UVM_INFO /home/xe-user106/10x-Engineers/SOC-DV/TCP/axi_dma_verification/verif/environment/coverage_model.sv(31) @ 290000: uvm_test_top.env.axi_lite_cov [\$unit_params_pkg_sv_2076944976 .\axi_lite_coverage::write ] Recieved AXI Lite transaction in Coverage Model
UVM_INFO /home/xe-user106/10x-Engineers/SOC-DV/TCP/axi_dma_verification/verif/stream_uvc/axis_read_monitor.sv(66) @ 290000: uvm_test_top.env.axis_r_agt.monitor [] ///////////////////////////////////////////////////////////////////////
UVM_INFO /home/xe-user106/10x-Engineers/SOC-DV/TCP/axi_dma_verification/verif/stream_uvc/axis_read_monitor.sv(67) @ 290000: uvm_test_top.env.axis_r_agt.monitor [] //                      MM2S READ Monitor                            //
UVM_INFO /home/xe-user106/10x-Engineers/SOC-DV/TCP/axi_dma_verification/verif/stream_uvc/axis_read_monitor.sv(68) @ 290000: uvm_test_top.env.axis_r_agt.monitor [] ///////////////////////////////////////////////////////////////////////
UVM_INFO /home/xe-user106/10x-Engineers/SOC-DV/TCP/axi_dma_verification/verif/stream_uvc/axis_read_monitor.sv(69) @ 290000: uvm_test_top.env.axis_r_agt.monitor [axis_read_monitor] Transaction Collected from AXI-Stream Read Master :
---------------------------------------
Name      Type              Size  Value
---------------------------------------
item      axis_transaction  -     @1804
  tdata   integral          32    'h0  
  tkeep   integral          4     'h0  
  tvalid  integral          1     'h0  
  tready  integral          1     'h0  
  tlast   integral          1     'h0  
---------------------------------------

UVM_INFO /home/xe-user106/10x-Engineers/SOC-DV/TCP/axi_dma_verification/verif/stream_uvc/axis_write_monitor.sv(64) @ 290000: uvm_test_top.env.axis_wr_agt.monitor [] ///////////////////////////////////////////////////////////////////////
UVM_INFO /home/xe-user106/10x-Engineers/SOC-DV/TCP/axi_dma_verification/verif/stream_uvc/axis_write_monitor.sv(65) @ 290000: uvm_test_top.env.axis_wr_agt.monitor [] //                      S2MM WRITE Monitor                            //
UVM_INFO /home/xe-user106/10x-Engineers/SOC-DV/TCP/axi_dma_verification/verif/stream_uvc/axis_write_monitor.sv(66) @ 290000: uvm_test_top.env.axis_wr_agt.monitor [] ///////////////////////////////////////////////////////////////////////
UVM_INFO /home/xe-user106/10x-Engineers/SOC-DV/TCP/axi_dma_verification/verif/stream_uvc/axis_write_monitor.sv(67) @ 290000: uvm_test_top.env.axis_wr_agt.monitor [axis_write_monitor] Transaction Collected from AXI-Stream Write Slave :
---------------------------------------
Name      Type              Size  Value
---------------------------------------
item      axis_transaction  -     @1792
  tdata   integral          32    'h0  
  tkeep   integral          4     'h0  
  tvalid  integral          1     'h0  
  tready  integral          1     'h0  
  tlast   integral          1     'h0  
---------------------------------------

UVM_INFO /home/xe-user106/10x-Engineers/SOC-DV/TCP/axi_dma_verification/verif/stream_uvc/axis_write_monitor.sv(64) @ 310000: uvm_test_top.env.axis_wr_agt.monitor [] ///////////////////////////////////////////////////////////////////////
UVM_INFO /home/xe-user106/10x-Engineers/SOC-DV/TCP/axi_dma_verification/verif/stream_uvc/axis_write_monitor.sv(65) @ 310000: uvm_test_top.env.axis_wr_agt.monitor [] //                      S2MM WRITE Monitor                            //
UVM_INFO /home/xe-user106/10x-Engineers/SOC-DV/TCP/axi_dma_verification/verif/stream_uvc/axis_write_monitor.sv(66) @ 310000: uvm_test_top.env.axis_wr_agt.monitor [] ///////////////////////////////////////////////////////////////////////
UVM_INFO /home/xe-user106/10x-Engineers/SOC-DV/TCP/axi_dma_verification/verif/stream_uvc/axis_write_monitor.sv(67) @ 310000: uvm_test_top.env.axis_wr_agt.monitor [axis_write_monitor] Transaction Collected from AXI-Stream Write Slave :
---------------------------------------
Name      Type              Size  Value
---------------------------------------
item      axis_transaction  -     @1836
  tdata   integral          32    'h0  
  tkeep   integral          4     'h0  
  tvalid  integral          1     'h0  
  tready  integral          1     'h0  
  tlast   integral          1     'h0  
---------------------------------------

UVM_INFO /home/xe-user106/10x-Engineers/SOC-DV/TCP/axi_dma_verification/verif/stream_uvc/axis_read_monitor.sv(66) @ 310000: uvm_test_top.env.axis_r_agt.monitor [] ///////////////////////////////////////////////////////////////////////
UVM_INFO /home/xe-user106/10x-Engineers/SOC-DV/TCP/axi_dma_verification/verif/stream_uvc/axis_read_monitor.sv(67) @ 310000: uvm_test_top.env.axis_r_agt.monitor [] //                      MM2S READ Monitor                            //
UVM_INFO /home/xe-user106/10x-Engineers/SOC-DV/TCP/axi_dma_verification/verif/stream_uvc/axis_read_monitor.sv(68) @ 310000: uvm_test_top.env.axis_r_agt.monitor [] ///////////////////////////////////////////////////////////////////////
UVM_INFO /home/xe-user106/10x-Engineers/SOC-DV/TCP/axi_dma_verification/verif/stream_uvc/axis_read_monitor.sv(69) @ 310000: uvm_test_top.env.axis_r_agt.monitor [axis_read_monitor] Transaction Collected from AXI-Stream Read Master :
---------------------------------------
Name      Type              Size  Value
---------------------------------------
item      axis_transaction  -     @1824
  tdata   integral          32    'h0  
  tkeep   integral          4     'h0  
  tvalid  integral          1     'h0  
  tready  integral          1     'h0  
  tlast   integral          1     'h0  
---------------------------------------

UVM_INFO /home/xe-user106/10x-Engineers/SOC-DV/TCP/axi_dma_verification/verif/environment/coverage_model.sv(31) @ 310000: uvm_test_top.env.axi_lite_cov [\$unit_params_pkg_sv_2076944976 .\axi_lite_coverage::write ] Recieved AXI Lite transaction in Coverage Model
UVM_INFO /home/xe-user106/10x-Engineers/SOC-DV/TCP/axi_dma_verification/verif/axi_coverage_monitor/axi_monitor.sv(94) @ 310000: uvm_test_top.env.axi_cov_mon [axi_monitor] Transaction Collected :
---------------------------------------
Name       Type             Size  Value
---------------------------------------
item       axi_transaction  -     @1390
  araddr   integral         32    'h0  
  arlen    integral         8     'h0  
  arsize   integral         3     'h0  
  arburst  integral         2     'h0  
  arprot   integral         3     'h0  
  arcache  integral         4     'h3  
  arvalid  integral         1     'h0  
  arready  integral         1     'h0  
  rdata    integral         32    'h0  
  rresp    integral         2     'h0  
  rlast    integral         1     'h0  
  rvalid   integral         1     'h0  
  rready   integral         1     'h0  
  awaddr   integral         32    'h0  
  awlen    integral         8     'h0  
  awsize   integral         3     'h0  
  awburst  integral         2     'h0  
  awprot   integral         3     'h0  
  awcache  integral         4     'h3  
  awvalid  integral         1     'h0  
  awready  integral         1     'h0  
  wdata    integral         32    'h0  
  wstrb    integral         4     'h0  
  wlast    integral         1     'h0  
  wvalid   integral         1     'h0  
  wready   integral         1     'h0  
  bvalid   integral         1     'h0  
  bready   integral         1     'h0  
  bresp    integral         2     'h0  
---------------------------------------

UVM_INFO /home/xe-user106/10x-Engineers/SOC-DV/TCP/axi_dma_verification/verif/axi_coverage_monitor/axi_monitor.sv(94) @ 330000: uvm_test_top.env.axi_cov_mon [axi_monitor] Transaction Collected :
---------------------------------------
Name       Type             Size  Value
---------------------------------------
item       axi_transaction  -     @1390
  araddr   integral         32    'h0  
  arlen    integral         8     'h0  
  arsize   integral         3     'h0  
  arburst  integral         2     'h0  
  arprot   integral         3     'h0  
  arcache  integral         4     'h3  
  arvalid  integral         1     'h0  
  arready  integral         1     'h0  
  rdata    integral         32    'h0  
  rresp    integral         2     'h0  
  rlast    integral         1     'h0  
  rvalid   integral         1     'h0  
  rready   integral         1     'h0  
  awaddr   integral         32    'h0  
  awlen    integral         8     'h0  
  awsize   integral         3     'h0  
  awburst  integral         2     'h0  
  awprot   integral         3     'h0  
  awcache  integral         4     'h3  
  awvalid  integral         1     'h0  
  awready  integral         1     'h0  
  wdata    integral         32    'h0  
  wstrb    integral         4     'h0  
  wlast    integral         1     'h0  
  wvalid   integral         1     'h0  
  wready   integral         1     'h0  
  bvalid   integral         1     'h0  
  bready   integral         1     'h0  
  bresp    integral         2     'h0  
---------------------------------------

UVM_INFO /home/xe-user106/10x-Engineers/SOC-DV/TCP/axi_dma_verification/verif/environment/coverage_model.sv(31) @ 330000: uvm_test_top.env.axi_lite_cov [\$unit_params_pkg_sv_2076944976 .\axi_lite_coverage::write ] Recieved AXI Lite transaction in Coverage Model
UVM_INFO /home/xe-user106/10x-Engineers/SOC-DV/TCP/axi_dma_verification/verif/stream_uvc/axis_read_monitor.sv(66) @ 330000: uvm_test_top.env.axis_r_agt.monitor [] ///////////////////////////////////////////////////////////////////////
UVM_INFO /home/xe-user106/10x-Engineers/SOC-DV/TCP/axi_dma_verification/verif/stream_uvc/axis_read_monitor.sv(67) @ 330000: uvm_test_top.env.axis_r_agt.monitor [] //                      MM2S READ Monitor                            //
UVM_INFO /home/xe-user106/10x-Engineers/SOC-DV/TCP/axi_dma_verification/verif/stream_uvc/axis_read_monitor.sv(68) @ 330000: uvm_test_top.env.axis_r_agt.monitor [] ///////////////////////////////////////////////////////////////////////
UVM_INFO /home/xe-user106/10x-Engineers/SOC-DV/TCP/axi_dma_verification/verif/stream_uvc/axis_read_monitor.sv(69) @ 330000: uvm_test_top.env.axis_r_agt.monitor [axis_read_monitor] Transaction Collected from AXI-Stream Read Master :
---------------------------------------
Name      Type              Size  Value
---------------------------------------
item      axis_transaction  -     @1860
  tdata   integral          32    'h0  
  tkeep   integral          4     'h0  
  tvalid  integral          1     'h0  
  tready  integral          1     'h0  
  tlast   integral          1     'h0  
---------------------------------------

UVM_INFO /home/xe-user106/10x-Engineers/SOC-DV/TCP/axi_dma_verification/verif/stream_uvc/axis_write_monitor.sv(64) @ 330000: uvm_test_top.env.axis_wr_agt.monitor [] ///////////////////////////////////////////////////////////////////////
UVM_INFO /home/xe-user106/10x-Engineers/SOC-DV/TCP/axi_dma_verification/verif/stream_uvc/axis_write_monitor.sv(65) @ 330000: uvm_test_top.env.axis_wr_agt.monitor [] //                      S2MM WRITE Monitor                            //
UVM_INFO /home/xe-user106/10x-Engineers/SOC-DV/TCP/axi_dma_verification/verif/stream_uvc/axis_write_monitor.sv(66) @ 330000: uvm_test_top.env.axis_wr_agt.monitor [] ///////////////////////////////////////////////////////////////////////
UVM_INFO /home/xe-user106/10x-Engineers/SOC-DV/TCP/axi_dma_verification/verif/stream_uvc/axis_write_monitor.sv(67) @ 330000: uvm_test_top.env.axis_wr_agt.monitor [axis_write_monitor] Transaction Collected from AXI-Stream Write Slave :
---------------------------------------
Name      Type              Size  Value
---------------------------------------
item      axis_transaction  -     @1848
  tdata   integral          32    'h0  
  tkeep   integral          4     'h0  
  tvalid  integral          1     'h0  
  tready  integral          1     'h0  
  tlast   integral          1     'h0  
---------------------------------------

UVM_INFO /home/xe-user106/10x-Engineers/SOC-DV/TCP/axi_dma_verification/verif/stream_uvc/axis_write_monitor.sv(64) @ 350000: uvm_test_top.env.axis_wr_agt.monitor [] ///////////////////////////////////////////////////////////////////////
UVM_INFO /home/xe-user106/10x-Engineers/SOC-DV/TCP/axi_dma_verification/verif/stream_uvc/axis_write_monitor.sv(65) @ 350000: uvm_test_top.env.axis_wr_agt.monitor [] //                      S2MM WRITE Monitor                            //
UVM_INFO /home/xe-user106/10x-Engineers/SOC-DV/TCP/axi_dma_verification/verif/stream_uvc/axis_write_monitor.sv(66) @ 350000: uvm_test_top.env.axis_wr_agt.monitor [] ///////////////////////////////////////////////////////////////////////
UVM_INFO /home/xe-user106/10x-Engineers/SOC-DV/TCP/axi_dma_verification/verif/stream_uvc/axis_write_monitor.sv(67) @ 350000: uvm_test_top.env.axis_wr_agt.monitor [axis_write_monitor] Transaction Collected from AXI-Stream Write Slave :
---------------------------------------
Name      Type              Size  Value
---------------------------------------
item      axis_transaction  -     @1942
  tdata   integral          32    'h0  
  tkeep   integral          4     'h0  
  tvalid  integral          1     'h0  
  tready  integral          1     'h0  
  tlast   integral          1     'h0  
---------------------------------------

UVM_INFO /home/xe-user106/10x-Engineers/SOC-DV/TCP/axi_dma_verification/verif/stream_uvc/axis_read_monitor.sv(66) @ 350000: uvm_test_top.env.axis_r_agt.monitor [] ///////////////////////////////////////////////////////////////////////
UVM_INFO /home/xe-user106/10x-Engineers/SOC-DV/TCP/axi_dma_verification/verif/stream_uvc/axis_read_monitor.sv(67) @ 350000: uvm_test_top.env.axis_r_agt.monitor [] //                      MM2S READ Monitor                            //
UVM_INFO /home/xe-user106/10x-Engineers/SOC-DV/TCP/axi_dma_verification/verif/stream_uvc/axis_read_monitor.sv(68) @ 350000: uvm_test_top.env.axis_r_agt.monitor [] ///////////////////////////////////////////////////////////////////////
UVM_INFO /home/xe-user106/10x-Engineers/SOC-DV/TCP/axi_dma_verification/verif/stream_uvc/axis_read_monitor.sv(69) @ 350000: uvm_test_top.env.axis_r_agt.monitor [axis_read_monitor] Transaction Collected from AXI-Stream Read Master :
---------------------------------------
Name      Type              Size  Value
---------------------------------------
item      axis_transaction  -     @1930
  tdata   integral          32    'h0  
  tkeep   integral          4     'h0  
  tvalid  integral          1     'h0  
  tready  integral          1     'h0  
  tlast   integral          1     'h0  
---------------------------------------

UVM_INFO /home/xe-user106/10x-Engineers/SOC-DV/TCP/axi_dma_verification/verif/environment/coverage_model.sv(31) @ 350000: uvm_test_top.env.axi_lite_cov [\$unit_params_pkg_sv_2076944976 .\axi_lite_coverage::write ] Recieved AXI Lite transaction in Coverage Model
UVM_INFO /home/xe-user106/10x-Engineers/SOC-DV/TCP/axi_dma_verification/verif/axi_coverage_monitor/axi_monitor.sv(94) @ 350000: uvm_test_top.env.axi_cov_mon [axi_monitor] Transaction Collected :
---------------------------------------
Name       Type             Size  Value
---------------------------------------
item       axi_transaction  -     @1390
  araddr   integral         32    'h0  
  arlen    integral         8     'h0  
  arsize   integral         3     'h0  
  arburst  integral         2     'h0  
  arprot   integral         3     'h0  
  arcache  integral         4     'h3  
  arvalid  integral         1     'h0  
  arready  integral         1     'h0  
  rdata    integral         32    'h0  
  rresp    integral         2     'h0  
  rlast    integral         1     'h0  
  rvalid   integral         1     'h0  
  rready   integral         1     'h0  
  awaddr   integral         32    'h0  
  awlen    integral         8     'h0  
  awsize   integral         3     'h0  
  awburst  integral         2     'h0  
  awprot   integral         3     'h0  
  awcache  integral         4     'h3  
  awvalid  integral         1     'h0  
  awready  integral         1     'h0  
  wdata    integral         32    'h0  
  wstrb    integral         4     'h0  
  wlast    integral         1     'h0  
  wvalid   integral         1     'h0  
  wready   integral         1     'h0  
  bvalid   integral         1     'h0  
  bready   integral         1     'h0  
  bresp    integral         2     'h0  
---------------------------------------

UVM_INFO /home/xe-user106/10x-Engineers/SOC-DV/TCP/axi_dma_verification/verif/axi_coverage_monitor/axi_monitor.sv(94) @ 370000: uvm_test_top.env.axi_cov_mon [axi_monitor] Transaction Collected :
---------------------------------------
Name       Type             Size  Value
---------------------------------------
item       axi_transaction  -     @1390
  araddr   integral         32    'h0  
  arlen    integral         8     'h0  
  arsize   integral         3     'h0  
  arburst  integral         2     'h0  
  arprot   integral         3     'h0  
  arcache  integral         4     'h3  
  arvalid  integral         1     'h0  
  arready  integral         1     'h1  
  rdata    integral         32    'h0  
  rresp    integral         2     'h0  
  rlast    integral         1     'h0  
  rvalid   integral         1     'h0  
  rready   integral         1     'h0  
  awaddr   integral         32    'h0  
  awlen    integral         8     'h0  
  awsize   integral         3     'h0  
  awburst  integral         2     'h0  
  awprot   integral         3     'h0  
  awcache  integral         4     'h3  
  awvalid  integral         1     'h0  
  awready  integral         1     'h1  
  wdata    integral         32    'h0  
  wstrb    integral         4     'h0  
  wlast    integral         1     'h0  
  wvalid   integral         1     'h0  
  wready   integral         1     'h0  
  bvalid   integral         1     'h0  
  bready   integral         1     'h0  
  bresp    integral         2     'h0  
---------------------------------------

UVM_INFO /home/xe-user106/10x-Engineers/SOC-DV/TCP/axi_dma_verification/verif/environment/coverage_model.sv(31) @ 370000: uvm_test_top.env.axi_lite_cov [\$unit_params_pkg_sv_2076944976 .\axi_lite_coverage::write ] Recieved AXI Lite transaction in Coverage Model
UVM_INFO /home/xe-user106/10x-Engineers/SOC-DV/TCP/axi_dma_verification/verif/stream_uvc/axis_read_monitor.sv(66) @ 370000: uvm_test_top.env.axis_r_agt.monitor [] ///////////////////////////////////////////////////////////////////////
UVM_INFO /home/xe-user106/10x-Engineers/SOC-DV/TCP/axi_dma_verification/verif/stream_uvc/axis_read_monitor.sv(67) @ 370000: uvm_test_top.env.axis_r_agt.monitor [] //                      MM2S READ Monitor                            //
UVM_INFO /home/xe-user106/10x-Engineers/SOC-DV/TCP/axi_dma_verification/verif/stream_uvc/axis_read_monitor.sv(68) @ 370000: uvm_test_top.env.axis_r_agt.monitor [] ///////////////////////////////////////////////////////////////////////
UVM_INFO /home/xe-user106/10x-Engineers/SOC-DV/TCP/axi_dma_verification/verif/stream_uvc/axis_read_monitor.sv(69) @ 370000: uvm_test_top.env.axis_r_agt.monitor [axis_read_monitor] Transaction Collected from AXI-Stream Read Master :
---------------------------------------
Name      Type              Size  Value
---------------------------------------
item      axis_transaction  -     @1966
  tdata   integral          32    'h0  
  tkeep   integral          4     'h0  
  tvalid  integral          1     'h0  
  tready  integral          1     'h0  
  tlast   integral          1     'h0  
---------------------------------------

UVM_INFO /home/xe-user106/10x-Engineers/SOC-DV/TCP/axi_dma_verification/verif/stream_uvc/axis_write_monitor.sv(64) @ 370000: uvm_test_top.env.axis_wr_agt.monitor [] ///////////////////////////////////////////////////////////////////////
UVM_INFO /home/xe-user106/10x-Engineers/SOC-DV/TCP/axi_dma_verification/verif/stream_uvc/axis_write_monitor.sv(65) @ 370000: uvm_test_top.env.axis_wr_agt.monitor [] //                      S2MM WRITE Monitor                            //
UVM_INFO /home/xe-user106/10x-Engineers/SOC-DV/TCP/axi_dma_verification/verif/stream_uvc/axis_write_monitor.sv(66) @ 370000: uvm_test_top.env.axis_wr_agt.monitor [] ///////////////////////////////////////////////////////////////////////
UVM_INFO /home/xe-user106/10x-Engineers/SOC-DV/TCP/axi_dma_verification/verif/stream_uvc/axis_write_monitor.sv(67) @ 370000: uvm_test_top.env.axis_wr_agt.monitor [axis_write_monitor] Transaction Collected from AXI-Stream Write Slave :
---------------------------------------
Name      Type              Size  Value
---------------------------------------
item      axis_transaction  -     @1954
  tdata   integral          32    'h0  
  tkeep   integral          4     'h0  
  tvalid  integral          1     'h0  
  tready  integral          1     'h0  
  tlast   integral          1     'h0  
---------------------------------------

UVM_INFO /home/xe-user106/10x-Engineers/SOC-DV/TCP/axi_dma_verification/verif/stream_uvc/axis_write_monitor.sv(64) @ 390000: uvm_test_top.env.axis_wr_agt.monitor [] ///////////////////////////////////////////////////////////////////////
UVM_INFO /home/xe-user106/10x-Engineers/SOC-DV/TCP/axi_dma_verification/verif/stream_uvc/axis_write_monitor.sv(65) @ 390000: uvm_test_top.env.axis_wr_agt.monitor [] //                      S2MM WRITE Monitor                            //
UVM_INFO /home/xe-user106/10x-Engineers/SOC-DV/TCP/axi_dma_verification/verif/stream_uvc/axis_write_monitor.sv(66) @ 390000: uvm_test_top.env.axis_wr_agt.monitor [] ///////////////////////////////////////////////////////////////////////
UVM_INFO /home/xe-user106/10x-Engineers/SOC-DV/TCP/axi_dma_verification/verif/stream_uvc/axis_write_monitor.sv(67) @ 390000: uvm_test_top.env.axis_wr_agt.monitor [axis_write_monitor] Transaction Collected from AXI-Stream Write Slave :
---------------------------------------
Name      Type              Size  Value
---------------------------------------
item      axis_transaction  -     @1998
  tdata   integral          32    'h0  
  tkeep   integral          4     'h0  
  tvalid  integral          1     'h0  
  tready  integral          1     'h0  
  tlast   integral          1     'h0  
---------------------------------------

UVM_INFO /home/xe-user106/10x-Engineers/SOC-DV/TCP/axi_dma_verification/verif/stream_uvc/axis_read_monitor.sv(66) @ 390000: uvm_test_top.env.axis_r_agt.monitor [] ///////////////////////////////////////////////////////////////////////
UVM_INFO /home/xe-user106/10x-Engineers/SOC-DV/TCP/axi_dma_verification/verif/stream_uvc/axis_read_monitor.sv(67) @ 390000: uvm_test_top.env.axis_r_agt.monitor [] //                      MM2S READ Monitor                            //
UVM_INFO /home/xe-user106/10x-Engineers/SOC-DV/TCP/axi_dma_verification/verif/stream_uvc/axis_read_monitor.sv(68) @ 390000: uvm_test_top.env.axis_r_agt.monitor [] ///////////////////////////////////////////////////////////////////////
UVM_INFO /home/xe-user106/10x-Engineers/SOC-DV/TCP/axi_dma_verification/verif/stream_uvc/axis_read_monitor.sv(69) @ 390000: uvm_test_top.env.axis_r_agt.monitor [axis_read_monitor] Transaction Collected from AXI-Stream Read Master :
---------------------------------------
Name      Type              Size  Value
---------------------------------------
